Time [s],Packet ID,Address,Data,Read/Write,ACK/NAK
0.073835750000000,0,0x03,0x00,Read,ACK
0.073953575000000,0,0x03,0x00,Read,ACK
0.074063475000000,0,0x03,0x00,Read,ACK
0.074173350000000,0,0x03,0x00,Read,ACK
0.074283250000000,0,0x03,0x00,Read,ACK
0.074393125000000,0,0x03,0x00,Read,ACK
0.074504325000000,0,0x03,0x00,Read,ACK
0.074614200000000,0,0x03,0x00,Read,ACK
0.074724075000000,0,0x03,0x00,Read,ACK
0.074833975000000,0,0x03,0x00,Read,ACK
0.074943850000000,0,0x03,0x00,Read,ACK
0.075055725000000,0,0x03,0x00,Read,ACK
0.075165600000000,0,0x03,0x00,Read,ACK
0.075275475000000,0,0x03,0x00,Read,ACK
0.075385375000000,0,0x03,0x00,Read,ACK
0.075495250000000,0,0x03,0x00,Read,NAK
0.087534100000000,1,0x03,0x0A,Read,ACK
0.087643975000000,1,0x03,0x00,Read,ACK
0.087753850000000,1,0x03,0x00,Read,ACK
0.087863750000000,1,0x03,0x00,Read,ACK
0.087984875000000,1,0x03,0x01,Read,ACK
0.088094750000000,1,0x03,0xD7,Read,ACK
0.088204650000000,1,0x03,0x0C,Read,ACK
0.088314525000000,1,0x03,0xE4,Read,ACK
0.088424425000000,1,0x03,0x00,Read,ACK
0.088536300000000,1,0x03,0x00,Read,ACK
0.088646175000000,1,0x03,0x00,Read,ACK
0.088756050000000,1,0x03,0x00,Read,ACK
0.088865950000000,1,0x03,0x00,Read,ACK
0.088975825000000,1,0x03,0x00,Read,ACK
0.089086375000000,1,0x03,0x00,Read,ACK
0.089196250000000,1,0x03,0x00,Read,NAK
0.101225950000000,2,0x05,0x03,Read,ACK
0.101335825000000,2,0x05,0x00,Read,ACK
0.101445725000000,2,0x05,0x00,Read,ACK
0.101555600000000,2,0x05,0x00,Read,ACK
0.101665500000000,2,0x05,0x00,Read,ACK
0.101775375000000,2,0x05,0x00,Read,ACK
0.101885925000000,2,0x05,0x00,Read,ACK
0.101995800000000,2,0x05,0x00,Read,ACK
0.102105700000000,2,0x05,0x00,Read,ACK
0.102215575000000,2,0x05,0x00,Read,ACK
0.102325475000000,2,0x05,0x00,Read,ACK
0.102436675000000,2,0x05,0x00,Read,ACK
0.102546575000000,2,0x05,0x00,Read,ACK
0.102656450000000,2,0x05,0x00,Read,ACK
0.102766350000000,2,0x05,0x00,Read,ACK
0.102876225000000,2,0x05,0x00,Read,NAK
0.114706575000000,3,0x05,0x40,Read,ACK
0.114816475000000,3,0x05,0x00,Read,ACK
0.114926350000000,3,0x05,0xA1,Read,ACK
0.115036225000000,3,0x05,0x37,Read,ACK
0.115146125000000,3,0x05,0x00,Read,ACK
0.115259975000000,3,0x05,0x00,Read,ACK
0.115369850000000,3,0x05,0x00,Read,ACK
0.115479725000000,3,0x05,0x00,Read,ACK
0.115589625000000,3,0x05,0x00,Read,ACK
0.115699500000000,3,0x05,0x00,Read,ACK
0.115810025000000,3,0x05,0x00,Read,ACK
0.115919900000000,3,0x05,0x00,Read,ACK
0.116029775000000,3,0x05,0x00,Read,ACK
0.116139675000000,3,0x05,0x00,Read,ACK
0.116249525000000,3,0x05,0x00,Read,ACK
0.116361400000000,3,0x05,0x00,Read,NAK
0.128412800000000,4,0x07,0x0A,Read,ACK
0.128522675000000,4,0x07,0x00,Read,ACK
0.128632550000000,4,0x07,0x00,Read,ACK
0.128742450000000,4,0x07,0x00,Read,ACK
0.128852325000000,4,0x07,0x01,Read,ACK
0.128962200000000,4,0x07,0xD8,Read,ACK
0.129072100000000,4,0x07,0x0C,Read,ACK
0.129182625000000,4,0x07,0xE4,Read,ACK
0.129292525000000,4,0x07,0x00,Read,ACK
0.129402400000000,4,0x07,0x00,Read,ACK
0.129512275000000,4,0x07,0x00,Read,ACK
0.129622175000000,4,0x07,0x00,Read,ACK
0.129732050000000,4,0x07,0x00,Read,ACK
0.129841925000000,4,0x07,0x00,Read,ACK
0.129951825000000,4,0x07,0x00,Read,ACK
0.130061700000000,4,0x07,0x00,Read,NAK
0.141905000000000,5,0x07,0x03,Read,ACK
0.142015550000000,5,0x07,0x00,Read,ACK
0.142125425000000,5,0x07,0x00,Read,ACK
0.142245250000000,5,0x07,0x00,Read,ACK
0.142355125000000,5,0x07,0x00,Read,ACK
0.142465000000000,5,0x07,0x00,Read,ACK
0.142574875000000,5,0x07,0x00,Read,ACK
0.142684750000000,5,0x07,0x00,Read,ACK
0.142796625000000,5,0x07,0x00,Read,ACK
0.142906500000000,5,0x07,0x00,Read,ACK
0.143016375000000,5,0x07,0x00,Read,ACK
0.143126275000000,5,0x07,0x00,Read,ACK
0.143236150000000,5,0x07,0x00,Read,ACK
0.143347350000000,5,0x07,0x00,Read,ACK
0.143457225000000,5,0x07,0x00,Read,ACK
0.143567100000000,5,0x07,0x00,Read,NAK
0.155498950000000,,0x09,,Read,NAK
0.168541125000000,,0x09,,Read,NAK
0.181801075000000,,0x0B,,Read,NAK
0.194861325000000,,0x0B,,Read,NAK
0.208125350000000,,0x0D,,Read,NAK
0.221178775000000,,0x0D,,Read,NAK
0.234443500000000,,0x0F,,Read,NAK
0.247502050000000,,0x0F,,Read,NAK
0.260880600000000,14,0x11,0x40,Read,ACK
0.260991150000000,14,0x11,0x00,Read,ACK
0.261101025000000,14,0x11,0x5E,Read,ACK
0.261210925000000,14,0x11,0xCF,Read,ACK
0.261322775000000,14,0x11,0x00,Read,ACK
0.261432675000000,14,0x11,0x00,Read,ACK
0.261542550000000,14,0x11,0x00,Read,ACK
0.261652425000000,14,0x11,0x00,Read,ACK
0.261762300000000,14,0x11,0x00,Read,ACK
0.261873525000000,14,0x11,0x00,Read,ACK
0.261983400000000,14,0x11,0x00,Read,ACK
0.262093275000000,14,0x11,0x00,Read,ACK
0.262203175000000,14,0x11,0x00,Read,ACK
0.262313050000000,14,0x11,0x00,Read,ACK
0.262424250000000,14,0x11,0x00,Read,ACK
0.262534150000000,14,0x11,0x00,Read,NAK
0.274360550000000,15,0x11,0x0A,Read,ACK
0.274470425000000,15,0x11,0x00,Read,ACK
0.274580300000000,15,0x11,0x00,Read,ACK
0.274690175000000,15,0x11,0x00,Read,ACK
0.274800050000000,15,0x11,0x01,Read,ACK
0.274909950000000,15,0x11,0xE8,Read,ACK
0.275019825000000,15,0x11,0x0C,Read,ACK
0.275129700000000,15,0x11,0xE4,Read,ACK
0.275239575000000,15,0x11,0x00,Read,ACK
0.275349450000000,15,0x11,0x00,Read,ACK
0.275459325000000,15,0x11,0x00,Read,ACK
0.275569225000000,15,0x11,0x00,Read,ACK
0.275679100000000,15,0x11,0x00,Read,ACK
0.275788975000000,15,0x11,0x00,Read,ACK
0.275898850000000,15,0x11,0x00,Read,ACK
0.276009400000000,15,0x11,0x00,Read,NAK
0.288067025000000,16,0x13,0x03,Read,ACK
0.288189475000000,16,0x13,0x00,Read,ACK
0.288299350000000,16,0x13,0x00,Read,ACK
0.288409225000000,16,0x13,0x00,Read,ACK
0.288519100000000,16,0x13,0x00,Read,ACK
0.288628975000000,16,0x13,0x00,Read,ACK
0.288740175000000,16,0x13,0x00,Read,ACK
0.288850075000000,16,0x13,0x00,Read,ACK
0.288959950000000,16,0x13,0x00,Read,ACK
0.289069825000000,16,0x13,0x00,Read,ACK
0.289179700000000,16,0x13,0x00,Read,ACK
0.289290925000000,16,0x13,0x00,Read,ACK
0.289400800000000,16,0x13,0x00,Read,ACK
0.289510675000000,16,0x13,0x00,Read,ACK
0.289620550000000,16,0x13,0x00,Read,ACK
0.289730425000000,16,0x13,0x00,Read,NAK
0.301560575000000,17,0x13,0x40,Read,ACK
0.301670475000000,17,0x13,0x00,Read,ACK
0.301780350000000,17,0x13,0xDD,Read,ACK
0.301890225000000,17,0x13,0x9B,Read,ACK
0.302000100000000,17,0x13,0x00,Read,ACK
0.302110000000000,17,0x13,0x00,Read,ACK
0.302219875000000,17,0x13,0x00,Read,ACK
0.302329750000000,17,0x13,0x00,Read,ACK
0.302439625000000,17,0x13,0x00,Read,ACK
0.302549525000000,17,0x13,0x00,Read,ACK
0.302659400000000,17,0x13,0x00,Read,ACK
0.302771250000000,17,0x13,0x00,Read,ACK
0.302881150000000,17,0x13,0x00,Read,ACK
0.302991025000000,17,0x13,0x00,Read,ACK
0.303100900000000,17,0x13,0x00,Read,ACK
0.303210800000000,17,0x13,0x00,Read,NAK
0.315267000000000,18,0x15,0x0A,Read,ACK
0.315376875000000,18,0x15,0x00,Read,ACK
0.315486750000000,18,0x15,0x00,Read,ACK
0.315596650000000,18,0x15,0x00,Read,ACK
0.315725725000000,18,0x15,0x01,Read,ACK
0.315835600000000,18,0x15,0xF0,Read,ACK
0.315945475000000,18,0x15,0x0C,Read,ACK
0.316055350000000,18,0x15,0xE4,Read,ACK
0.316165225000000,18,0x15,0x00,Read,ACK
0.316276425000000,18,0x15,0x00,Read,ACK
0.316386975000000,18,0x15,0x00,Read,ACK
0.316496825000000,18,0x15,0x00,Read,ACK
0.316607375000000,18,0x15,0x00,Read,ACK
0.316717250000000,18,0x15,0x00,Read,ACK
0.316827125000000,18,0x15,0x00,Read,ACK
0.316937000000000,18,0x15,0x00,Read,NAK
0.328746875000000,19,0x15,0x03,Read,ACK
0.328856750000000,19,0x15,0x00,Read,ACK
0.328966650000000,19,0x15,0x00,Read,ACK
0.329076525000000,19,0x15,0x00,Read,ACK
0.329186400000000,19,0x15,0x00,Read,ACK
0.329296300000000,19,0x15,0x00,Read,ACK
0.329406175000000,19,0x15,0x00,Read,ACK
0.329516050000000,19,0x15,0x00,Read,ACK
0.329625925000000,19,0x15,0x00,Read,ACK
0.329735825000000,19,0x15,0x00,Read,ACK
0.329845700000000,19,0x15,0x00,Read,ACK
0.329955575000000,19,0x15,0x00,Read,ACK
0.330065475000000,19,0x15,0x00,Read,ACK
0.330176000000000,19,0x15,0x00,Read,ACK
0.330285900000000,19,0x15,0x00,Read,ACK
0.330395775000000,19,0x15,0x00,Read,NAK
0.342440175000000,20,0x17,0x40,Read,ACK
0.342554700000000,20,0x17,0x00,Read,ACK
0.342664575000000,20,0x17,0xBE,Read,ACK
0.342774450000000,20,0x17,0xC8,Read,ACK
0.342884350000000,20,0x17,0x00,Read,ACK
0.342994225000000,20,0x17,0x00,Read,ACK
0.343105425000000,20,0x17,0x00,Read,ACK
0.343215325000000,20,0x17,0x00,Read,ACK
0.343325200000000,20,0x17,0x00,Read,ACK
0.343435075000000,20,0x17,0x00,Read,ACK
0.343544975000000,20,0x17,0x00,Read,ACK
0.343656175000000,20,0x17,0x00,Read,ACK
0.343766075000000,20,0x17,0x00,Read,ACK
0.343875950000000,20,0x17,0x00,Read,ACK
0.343985825000000,20,0x17,0x00,Read,ACK
0.344095725000000,20,0x17,0x00,Read,NAK
0.355918625000000,21,0x17,0x0A,Read,ACK
0.356028500000000,21,0x17,0x00,Read,ACK
0.356138375000000,21,0x17,0x00,Read,ACK
0.356248250000000,21,0x17,0x00,Read,ACK
0.356358125000000,21,0x17,0x01,Read,ACK
0.356479250000000,21,0x17,0xFA,Read,ACK
0.356589125000000,21,0x17,0x0C,Read,ACK
0.356699000000000,21,0x17,0xE4,Read,ACK
0.356808875000000,21,0x17,0x00,Read,ACK
0.356918750000000,21,0x17,0x00,Read,ACK
0.357029950000000,21,0x17,0x00,Read,ACK
0.357139825000000,21,0x17,0x00,Read,ACK
0.357249700000000,21,0x17,0x00,Read,ACK
0.357359600000000,21,0x17,0x00,Read,ACK
0.357469450000000,21,0x17,0x00,Read,ACK
0.357580675000000,21,0x17,0x00,Read,NAK
0.369531275000000,,0x19,,Read,NAK
0.382576300000000,,0x19,,Read,NAK
0.395853075000000,,0x1B,,Read,NAK
0.408907175000000,,0x1B,,Read,NAK
0.422172950000000,,0x1D,,Read,NAK
0.435233425000000,,0x1D,,Read,NAK
0.448499550000000,,0x1F,,Read,NAK
0.461541350000000,,0x1F,,Read,NAK
0.474810050000000,,0x21,,Read,NAK
0.487869450000000,,0x21,,Read,NAK
0.501140275000000,,0x23,,Read,NAK
0.514195550000000,,0x23,,Read,NAK
0.527470275000000,,0x25,,Read,NAK
0.540516975000000,,0x25,,Read,NAK
0.553786775000000,,0x27,,Read,NAK
0.566822350000000,,0x27,,Read,NAK
0.580136300000000,,0x29,,Read,NAK
0.593178950000000,,0x29,,Read,NAK
0.606442625000000,,0x2B,,Read,NAK
0.619502125000000,,0x2B,,Read,NAK
0.632769375000000,,0x2D,,Read,NAK
0.645824425000000,,0x2D,,Read,NAK
0.659105675000000,,0x2F,,Read,NAK
0.672153175000000,,0x2F,,Read,NAK
0.685427725000000,,0x31,,Read,NAK
0.698488450000000,,0x31,,Read,NAK
0.711759675000000,,0x33,,Read,NAK
0.724801850000000,,0x33,,Read,NAK
0.738064625000000,,0x35,,Read,NAK
0.751123750000000,,0x35,,Read,NAK
0.764388025000000,,0x37,,Read,NAK
0.777441425000000,,0x37,,Read,NAK
0.790707450000000,,0x39,,Read,NAK
0.803767000000000,,0x39,,Read,NAK
0.817042325000000,,0x3B,,Read,NAK
0.830077050000000,,0x3B,,Read,NAK
0.843371100000000,,0x3D,,Read,NAK
0.856413025000000,,0x3D,,Read,NAK
0.869683375000000,,0x3F,,Read,NAK
0.882744200000000,,0x3F,,Read,NAK
0.896015550000000,,0x41,,Read,NAK
0.909071475000000,,0x41,,Read,NAK
0.922342475000000,,0x43,,Read,NAK
0.935414300000000,,0x43,,Read,NAK
0.948683100000000,,0x45,,Read,NAK
0.961718075000000,,0x45,,Read,NAK
0.975004300000000,,0x47,,Read,NAK
0.988046375000000,,0x47,,Read,NAK
1.001307650000000,,0x49,,Read,NAK
1.014365950000000,,0x49,,Read,NAK
1.027631150000000,,0x4B,,Read,NAK
1.040684900000000,,0x4B,,Read,NAK
1.053950825000000,,0x4D,,Read,NAK
1.067009525000000,,0x4D,,Read,NAK
1.080282175000000,,0x4F,,Read,NAK
1.093316275000000,,0x4F,,Read,NAK
1.106608900000000,,0x51,,Read,NAK
1.119643625000000,,0x51,,Read,NAK
1.132922200000000,,0x53,,Read,NAK
1.145983000000000,,0x53,,Read,NAK
1.159245650000000,,0x55,,Read,NAK
1.172298700000000,,0x55,,Read,NAK
1.185562275000000,,0x57,,Read,NAK
1.198619900000000,,0x57,,Read,NAK
1.211885450000000,,0x59,,Read,NAK
1.224926925000000,,0x59,,Read,NAK
1.238193075000000,,0x5B,,Read,NAK
1.251285400000000,,0x5B,,Read,NAK
1.264552100000000,,0x5D,,Read,NAK
1.277610875000000,,0x5D,,Read,NAK
1.290880775000000,,0x5F,,Read,NAK
1.303934025000000,,0x5F,,Read,NAK
1.317204475000000,,0x61,,Read,NAK
1.330264375000000,,0x61,,Read,NAK
1.343544150000000,,0x63,,Read,NAK
1.356578625000000,,0x63,,Read,NAK
1.369865875000000,,0x65,,Read,NAK
1.382908450000000,,0x65,,Read,NAK
1.396170825000000,,0x67,,Read,NAK
1.409231175000000,,0x67,,Read,NAK
1.422496575000000,,0x69,,Read,NAK
1.435551925000000,,0x69,,Read,NAK
1.448818875000000,,0x6B,,Read,NAK
1.461879275000000,,0x6B,,Read,NAK
1.475148475000000,,0x6D,,Read,NAK
1.488197350000000,,0x6D,,Read,NAK
1.501490875000000,,0x6F,,Read,NAK
1.514525100000000,,0x6F,,Read,NAK
1.527809225000000,,0x71,,Read,NAK
1.540866900000000,,0x71,,Read,NAK
1.554141925000000,,0x73,,Read,NAK
1.567196225000000,,0x73,,Read,NAK
1.580461925000000,,0x75,,Read,NAK
1.593519975000000,,0x75,,Read,NAK
1.606793700000000,,0x77,,Read,NAK
1.619828325000000,,0x77,,Read,NAK
1.633120175000000,,0x79,,Read,NAK
1.646154950000000,,0x79,,Read,NAK
1.659437400000000,,0x7B,,Read,NAK
1.672497950000000,,0x7B,,Read,NAK
1.685769025000000,,0x7D,,Read,NAK
1.698823600000000,,0x7D,,Read,NAK
1.712095975000000,,0x7F,,Read,NAK
1.725154825000000,,0x7F,,Read,NAK
1.738538325000000,126,0x81,0x03,Read,ACK
1.738648200000000,126,0x81,0x00,Read,ACK
1.738758100000000,126,0x81,0x00,Read,ACK
1.738868625000000,126,0x81,0x00,Read,ACK
1.738983825000000,126,0x81,0x00,Read,ACK
1.739093700000000,126,0x81,0x00,Read,ACK
1.739203575000000,126,0x81,0x00,Read,ACK
1.739313475000000,126,0x81,0x00,Read,ACK
1.739423350000000,126,0x81,0x00,Read,ACK
1.739534575000000,126,0x81,0x00,Read,ACK
1.739644450000000,126,0x81,0x00,Read,ACK
1.739754350000000,126,0x81,0x00,Read,ACK
1.739864225000000,126,0x81,0x00,Read,ACK
1.739974125000000,126,0x81,0x00,Read,ACK
1.740085350000000,126,0x81,0x00,Read,ACK
1.740195250000000,126,0x81,0x00,Read,NAK
1.752019300000000,127,0x81,0x40,Read,ACK
1.752129175000000,127,0x81,0x00,Read,ACK
1.752239075000000,127,0x81,0x65,Read,ACK
1.752348975000000,127,0x81,0xB1,Read,ACK
1.752458850000000,127,0x81,0x00,Read,ACK
1.752568750000000,127,0x81,0x00,Read,ACK
1.752678625000000,127,0x81,0x00,Read,ACK
1.752789175000000,127,0x81,0x00,Read,ACK
1.752899050000000,127,0x81,0x00,Read,ACK
1.753008950000000,127,0x81,0x00,Read,ACK
1.753118825000000,127,0x81,0x00,Read,ACK
1.753228725000000,127,0x81,0x00,Read,ACK
1.753338600000000,127,0x81,0x00,Read,ACK
1.753448500000000,127,0x81,0x00,Read,ACK
1.753558375000000,127,0x81,0x00,Read,ACK
1.753668275000000,127,0x81,0x00,Read,NAK
1.765727525000000,128,0x83,0x0A,Read,ACK
1.765851975000000,128,0x83,0x00,Read,ACK
1.765962525000000,128,0x83,0x00,Read,ACK
1.766072400000000,128,0x83,0x00,Read,ACK
1.766182300000000,128,0x83,0x02,Read,ACK
1.766292175000000,128,0x83,0x77,Read,ACK
1.766402725000000,128,0x83,0x0C,Read,ACK
1.766512600000000,128,0x83,0xE4,Read,ACK
1.766622500000000,128,0x83,0x00,Read,ACK
1.766732375000000,128,0x83,0x00,Read,ACK
1.766842250000000,128,0x83,0x00,Read,ACK
1.766953475000000,128,0x83,0x00,Read,ACK
1.767063350000000,128,0x83,0x00,Read,ACK
1.767173225000000,128,0x83,0x00,Read,ACK
1.767283125000000,128,0x83,0x00,Read,ACK
1.767393000000000,128,0x83,0x00,Read,NAK
1.779221050000000,129,0x83,0x03,Read,ACK
1.779332275000000,129,0x83,0x00,Read,ACK
1.779442150000000,129,0x83,0x00,Read,ACK
1.779552025000000,129,0x83,0x00,Read,ACK
1.779661925000000,129,0x83,0x00,Read,ACK
1.779771800000000,129,0x83,0x00,Read,ACK
1.779883000000000,129,0x83,0x00,Read,ACK
1.779992900000000,129,0x83,0x00,Read,ACK
1.780103425000000,129,0x83,0x00,Read,ACK
1.780213325000000,129,0x83,0x00,Read,ACK
1.780323225000000,129,0x83,0x00,Read,ACK
1.780433750000000,129,0x83,0x00,Read,ACK
1.780543650000000,129,0x83,0x00,Read,ACK
1.780653550000000,129,0x83,0x00,Read,ACK
1.780763425000000,129,0x83,0x00,Read,ACK
1.780873325000000,129,0x83,0x00,Read,NAK
1.792900725000000,130,0x85,0x40,Read,ACK
1.793010600000000,130,0x85,0x00,Read,ACK
1.793120500000000,130,0x85,0x62,Read,ACK
1.793233700000000,130,0x85,0x50,Read,ACK
1.793343600000000,130,0x85,0x00,Read,ACK
1.793453500000000,130,0x85,0x00,Read,ACK
1.793563375000000,130,0x85,0x00,Read,ACK
1.793673275000000,130,0x85,0x00,Read,ACK
1.793784500000000,130,0x85,0x00,Read,ACK
1.793894400000000,130,0x85,0x00,Read,ACK
1.794004275000000,130,0x85,0x00,Read,ACK
1.794114175000000,130,0x85,0x00,Read,ACK
1.794224075000000,130,0x85,0x00,Read,ACK
1.794335950000000,130,0x85,0x00,Read,ACK
1.794445850000000,130,0x85,0x00,Read,ACK
1.794555725000000,130,0x85,0x00,Read,NAK
1.806436525000000,131,0x85,0x0A,Read,ACK
1.806547075000000,131,0x85,0x00,Read,ACK
1.806656975000000,131,0x85,0x00,Read,ACK
1.806766875000000,131,0x85,0x00,Read,ACK
1.806876775000000,131,0x85,0x02,Read,ACK
1.806986650000000,131,0x85,0x77,Read,ACK
1.807096550000000,131,0x85,0x0C,Read,ACK
1.807206450000000,131,0x85,0xE4,Read,ACK
1.807316325000000,131,0x85,0x00,Read,ACK
1.807426225000000,131,0x85,0x00,Read,ACK
1.807536100000000,131,0x85,0x00,Read,ACK
1.807646000000000,131,0x85,0x00,Read,ACK
1.807755900000000,131,0x85,0x00,Read,ACK
1.807865800000000,131,0x85,0x00,Read,ACK
1.807975675000000,131,0x85,0x00,Read,ACK
1.808085575000000,131,0x85,0x00,Read,NAK
1.820127850000000,132,0x87,0x03,Read,ACK
1.820237750000000,132,0x87,0x00,Read,ACK
1.820347650000000,132,0x87,0x00,Read,ACK
1.820458200000000,132,0x87,0x00,Read,ACK
1.820568100000000,132,0x87,0x00,Read,ACK
1.820678650000000,132,0x87,0x00,Read,ACK
1.820788525000000,132,0x87,0x00,Read,ACK
1.820898425000000,132,0x87,0x00,Read,ACK
1.821008325000000,132,0x87,0x00,Read,ACK
1.821118200000000,132,0x87,0x00,Read,ACK
1.821228100000000,132,0x87,0x00,Read,ACK
1.821338000000000,132,0x87,0x00,Read,ACK
1.821447900000000,132,0x87,0x00,Read,ACK
1.821557800000000,132,0x87,0x00,Read,ACK
1.821667675000000,132,0x87,0x00,Read,ACK
1.821777575000000,132,0x87,0x00,Read,NAK
1.833608450000000,133,0x87,0x40,Read,ACK
1.833718350000000,133,0x87,0x00,Read,ACK
1.833828250000000,133,0x87,0x5F,Read,ACK
1.833938125000000,133,0x87,0x11,Read,ACK
1.834048025000000,133,0x87,0x00,Read,ACK
1.834157925000000,133,0x87,0x00,Read,ACK
1.834267825000000,133,0x87,0x00,Read,ACK
1.834377725000000,133,0x87,0x00,Read,ACK
1.834487600000000,133,0x87,0x00,Read,ACK
1.834597500000000,133,0x87,0x00,Read,ACK
1.834707400000000,133,0x87,0x00,Read,ACK
1.834817275000000,133,0x87,0x00,Read,ACK
1.834927175000000,133,0x87,0x00,Read,ACK
1.835037075000000,133,0x87,0x00,Read,ACK
1.835146950000000,133,0x87,0x00,Read,ACK
1.835256850000000,133,0x87,0x00,Read,NAK
1.847214400000000,,0x89,,Read,NAK
1.860262550000000,,0x89,,Read,NAK
1.873539050000000,,0x8B,,Read,NAK
1.886594600000000,,0x8B,,Read,NAK
1.899860900000000,,0x8D,,Read,NAK
1.912921950000000,,0x8D,,Read,NAK
1.926188975000000,,0x8F,,Read,NAK
1.939231175000000,,0x8F,,Read,NAK
1.952605575000000,142,0x91,0x0A,Read,ACK
1.952715450000000,142,0x91,0x00,Read,ACK
1.952827350000000,142,0x91,0x00,Read,ACK
1.952937225000000,142,0x91,0x00,Read,ACK
1.953047125000000,142,0x91,0x02,Read,ACK
1.953157025000000,142,0x91,0x77,Read,ACK
1.953266900000000,142,0x91,0x0C,Read,ACK
1.953378125000000,142,0x91,0xE4,Read,ACK
1.953488000000000,142,0x91,0x00,Read,ACK
1.953597900000000,142,0x91,0x00,Read,ACK
1.953707800000000,142,0x91,0x00,Read,ACK
1.953817700000000,142,0x91,0x00,Read,ACK
1.953929575000000,142,0x91,0x00,Read,ACK
1.954039475000000,142,0x91,0x00,Read,ACK
1.954149350000000,142,0x91,0x00,Read,ACK
1.954259250000000,142,0x91,0x00,Read,NAK
1.966100150000000,143,0x91,0x03,Read,ACK
1.966210025000000,143,0x91,0x00,Read,ACK
1.966334500000000,143,0x91,0x00,Read,ACK
1.966444375000000,143,0x91,0x00,Read,ACK
1.966554275000000,143,0x91,0x00,Read,ACK
1.966664175000000,143,0x91,0x00,Read,ACK
1.966774075000000,143,0x91,0x00,Read,ACK
1.966884625000000,143,0x91,0x00,Read,ACK
1.966994500000000,143,0x91,0x00,Read,ACK
1.967104400000000,143,0x91,0x00,Read,ACK
1.967214300000000,143,0x91,0x00,Read,ACK
1.967324175000000,143,0x91,0x00,Read,ACK
1.967436075000000,143,0x91,0x00,Read,ACK
1.967545975000000,143,0x91,0x00,Read,ACK
1.967655875000000,143,0x91,0x00,Read,ACK
1.967765750000000,143,0x91,0x00,Read,NAK
1.979819400000000,144,0x93,0x40,Read,ACK
1.979929275000000,144,0x93,0x00,Read,ACK
1.980039175000000,144,0x93,0x53,Read,ACK
1.980149050000000,144,0x93,0x4E,Read,ACK
1.980258950000000,144,0x93,0x00,Read,ACK
1.980368850000000,144,0x93,0x00,Read,ACK
1.980478725000000,144,0x93,0x00,Read,ACK
1.980588625000000,144,0x93,0x00,Read,ACK
1.980698525000000,144,0x93,0x00,Read,ACK
1.980808425000000,144,0x93,0x00,Read,ACK
1.980918300000000,144,0x93,0x00,Read,ACK
1.981028200000000,144,0x93,0x00,Read,ACK
1.981138075000000,144,0x93,0x00,Read,ACK
1.981247975000000,144,0x93,0x00,Read,ACK
1.981357875000000,144,0x93,0x00,Read,ACK
1.981467750000000,144,0x93,0x00,Read,NAK
1.993306900000000,145,0x93,0x0A,Read,ACK
1.993416800000000,145,0x93,0x00,Read,ACK
1.993526675000000,145,0x93,0x00,Read,ACK
1.993636575000000,145,0x93,0x00,Read,ACK
1.993746475000000,145,0x93,0x02,Read,ACK
1.993873575000000,145,0x93,0x77,Read,ACK
1.993983450000000,145,0x93,0x0C,Read,ACK
1.994093350000000,145,0x93,0xE4,Read,ACK
1.994203225000000,145,0x93,0x00,Read,ACK
1.994313125000000,145,0x93,0x00,Read,ACK
1.994423675000000,145,0x93,0x00,Read,ACK
1.994533575000000,145,0x93,0x00,Read,ACK
1.994643450000000,145,0x93,0x00,Read,ACK
1.994753350000000,145,0x93,0x00,Read,ACK
1.994863225000000,145,0x93,0x00,Read,ACK
1.994975100000000,145,0x93,0x00,Read,NAK
2.007001825000000,146,0x95,0x03,Read,ACK
2.007111700000000,146,0x95,0x00,Read,ACK
2.007221600000000,146,0x95,0x00,Read,ACK
2.007331500000000,146,0x95,0x00,Read,ACK
2.007441400000000,146,0x95,0x00,Read,ACK
2.007551275000000,146,0x95,0x00,Read,ACK
2.007661175000000,146,0x95,0x00,Read,ACK
2.007771050000000,146,0x95,0x00,Read,ACK
2.007880925000000,146,0x95,0x00,Read,ACK
2.007990825000000,146,0x95,0x00,Read,ACK
2.008100700000000,146,0x95,0x00,Read,ACK
2.008210600000000,146,0x95,0x00,Read,ACK
2.008320500000000,146,0x95,0x00,Read,ACK
2.008430375000000,146,0x95,0x00,Read,ACK
2.008540275000000,146,0x95,0x00,Read,ACK
2.008650150000000,146,0x95,0x00,Read,NAK
2.020495800000000,147,0x95,0x40,Read,ACK
2.020605675000000,147,0x95,0x00,Read,ACK
2.020715575000000,147,0x95,0x50,Read,ACK
2.020825450000000,147,0x95,0xA5,Read,ACK
2.020935350000000,147,0x95,0x00,Read,ACK
2.021045250000000,147,0x95,0x00,Read,ACK
2.021155125000000,147,0x95,0x00,Read,ACK
2.021265025000000,147,0x95,0x00,Read,ACK
2.021374925000000,147,0x95,0x00,Read,ACK
2.021484800000000,147,0x95,0x00,Read,ACK
2.021594700000000,147,0x95,0x00,Read,ACK
2.021704600000000,147,0x95,0x00,Read,ACK
2.021814500000000,147,0x95,0x00,Read,ACK
2.021924400000000,147,0x95,0x00,Read,ACK
2.022034300000000,147,0x95,0x00,Read,ACK
2.022144200000000,147,0x95,0x00,Read,NAK
2.034206025000000,148,0x97,0x0A,Read,ACK
2.034315925000000,148,0x97,0x00,Read,ACK
2.034425800000000,148,0x97,0x00,Read,ACK
2.034535700000000,148,0x97,0x00,Read,ACK
2.034645600000000,148,0x97,0x02,Read,ACK
2.034755500000000,148,0x97,0x77,Read,ACK
2.034865400000000,148,0x97,0x0C,Read,ACK
2.034975275000000,148,0x97,0xE4,Read,ACK
2.035085175000000,148,0x97,0x00,Read,ACK
2.035195075000000,148,0x97,0x00,Read,ACK
2.035304975000000,148,0x97,0x00,Read,ACK
2.035414850000000,148,0x97,0x00,Read,ACK
2.035524750000000,148,0x97,0x00,Read,ACK
2.035634650000000,148,0x97,0x00,Read,ACK
2.035745200000000,148,0x97,0x00,Read,ACK
2.035855075000000,148,0x97,0x00,Read,NAK
2.047686825000000,149,0x97,0x03,Read,ACK
2.047796700000000,149,0x97,0x00,Read,ACK
2.047906600000000,149,0x97,0x00,Read,ACK
2.048016475000000,149,0x97,0x00,Read,ACK
2.048126350000000,149,0x97,0x00,Read,ACK
2.048236250000000,149,0x97,0x00,Read,ACK
2.048346125000000,149,0x97,0x00,Read,ACK
2.048456025000000,149,0x97,0x00,Read,ACK
2.048565900000000,149,0x97,0x00,Read,ACK
2.048675800000000,149,0x97,0x00,Read,ACK
2.048785675000000,149,0x97,0x00,Read,ACK
2.048895575000000,149,0x97,0x00,Read,ACK
2.049005450000000,149,0x97,0x00,Read,ACK
2.049115325000000,149,0x97,0x00,Read,ACK
2.049225225000000,149,0x97,0x00,Read,ACK
2.049335100000000,149,0x97,0x00,Read,NAK
2.061281825000000,,0x99,,Read,NAK
2.074340500000000,,0x99,,Read,NAK
2.087615350000000,,0x9B,,Read,NAK
2.100650650000000,,0x9B,,Read,NAK
2.113945025000000,,0x9D,,Read,NAK
2.126980150000000,,0x9D,,Read,NAK
2.140264750000000,,0x9F,,Read,NAK
2.153326100000000,,0x9F,,Read,NAK
2.166597675000000,,0xA1,,Read,NAK
2.179653675000000,,0xA1,,Read,NAK
2.192926400000000,,0xA3,,Read,NAK
2.205985200000000,,0xA3,,Read,NAK
2.219256625000000,,0xA5,,Read,NAK
2.232292000000000,,0xA5,,Read,NAK
2.245582575000000,,0xA7,,Read,NAK
2.258624950000000,,0xA7,,Read,NAK
2.271889675000000,,0xA9,,Read,NAK
2.284950675000000,,0xA9,,Read,NAK
2.298216200000000,,0xAB,,Read,NAK
2.311271125000000,,0xAB,,Read,NAK
2.324541125000000,,0xAD,,Read,NAK
2.337602475000000,,0xAD,,Read,NAK
2.350888300000000,,0xAF,,Read,NAK
2.363922500000000,,0xAF,,Read,NAK
2.377219600000000,,0xB1,,Read,NAK
2.390269650000000,,0xB1,,Read,NAK
2.403544275000000,,0xB3,,Read,NAK
2.416605600000000,,0xB3,,Read,NAK
2.429872125000000,,0xB5,,Read,NAK
2.442927350000000,,0xB5,,Read,NAK
2.456194975000000,,0xB7,,Read,NAK
2.469255075000000,,0xB7,,Read,NAK
2.482531325000000,,0xB9,,Read,NAK
2.495566775000000,,0xB9,,Read,NAK
2.508863025000000,,0xBB,,Read,NAK
2.521905800000000,,0xBB,,Read,NAK
2.535176725000000,,0xBD,,Read,NAK
2.548238525000000,,0xBD,,Read,NAK
2.561509725000000,,0xBF,,Read,NAK
2.574564875000000,,0xBF,,Read,NAK
2.587839675000000,,0xC1,,Read,NAK
2.600899175000000,,0xC1,,Read,NAK
2.614179850000000,,0xC3,,Read,NAK
2.627214700000000,,0xC3,,Read,NAK
2.640502525000000,,0xC5,,Read,NAK
2.653545350000000,,0xC5,,Read,NAK
2.666810950000000,,0xC7,,Read,NAK
2.679871550000000,,0xC7,,Read,NAK
2.693137625000000,,0xC9,,Read,NAK
2.706191275000000,,0xC9,,Read,NAK
2.719460475000000,,0xCB,,Read,NAK
2.732521150000000,,0xCB,,Read,NAK
2.745790500000000,,0xCD,,Read,NAK
2.758841525000000,,0xCD,,Read,NAK
2.772137125000000,,0xCF,,Read,NAK
2.785172250000000,,0xCF,,Read,NAK
2.798457375000000,,0xD1,,Read,NAK
2.811518250000000,,0xD1,,Read,NAK
2.824792900000000,,0xD3,,Read,NAK
2.837848375000000,,0xD3,,Read,NAK
2.851113900000000,,0xD5,,Read,NAK
2.864175200000000,,0xD5,,Read,NAK
2.877450300000000,,0xD7,,Read,NAK
2.890484500000000,,0xD7,,Read,NAK
2.903777950000000,,0xD9,,Read,NAK
2.916820150000000,,0xD9,,Read,NAK
2.930088325000000,,0xDB,,Read,NAK
2.943148925000000,,0xDB,,Read,NAK
2.956418675000000,,0xDD,,Read,NAK
2.969473050000000,,0xDD,,Read,NAK
2.982744125000000,,0xDF,,Read,NAK
2.995804900000000,,0xDF,,Read,NAK
3.009086400000000,,0xE1,,Read,NAK
3.022120875000000,,0xE1,,Read,NAK
3.035421850000000,,0xE3,,Read,NAK
3.048463775000000,,0xE3,,Read,NAK
3.061728825000000,,0xE5,,Read,NAK
3.074789975000000,,0xE5,,Read,NAK
3.088056200000000,,0xE7,,Read,NAK
3.101111375000000,,0xE7,,Read,NAK
3.114377775000000,,0xE9,,Read,NAK
3.127436950000000,,0xE9,,Read,NAK
3.140714350000000,,0xEB,,Read,NAK
3.153747250000000,,0xEB,,Read,NAK
3.167044250000000,,0xED,,Read,NAK
3.180086450000000,,0xED,,Read,NAK
3.193359975000000,,0xEF,,Read,NAK
3.206421725000000,,0xEF,,Read,NAK
3.219695425000000,,0xF1,,Read,NAK
3.232750800000000,,0xF1,,Read,NAK
3.246027475000000,,0xF3,,Read,NAK
3.259088925000000,,0xF3,,Read,NAK
3.272365100000000,,0xF5,,Read,NAK
3.285399225000000,,0xF5,,Read,NAK
3.298695100000000,,0xF7,,Read,NAK
3.311737675000000,,0xF7,,Read,NAK
3.325006275000000,,0xF9,,Read,NAK
3.338068150000000,,0xF9,,Read,NAK
3.351341300000000,,0xFB,,Read,NAK
3.364397875000000,,0xFB,,Read,NAK
3.439391350000000,250,0x07,0x40,Read,ACK
3.439501250000000,250,0x07,0x00,Read,ACK
3.439611150000000,250,0x07,0x4E,Read,ACK
3.439721050000000,250,0x07,0x14,Read,ACK
3.439830950000000,250,0x07,0x00,Read,ACK
3.439940850000000,250,0x07,0x00,Read,ACK
3.440050750000000,250,0x07,0x00,Read,ACK
3.440160650000000,250,0x07,0x00,Read,ACK
3.440270550000000,250,0x07,0x00,Read,ACK
3.440380450000000,250,0x07,0x00,Read,ACK
3.440490350000000,250,0x07,0x00,Read,ACK
3.440600225000000,250,0x07,0x00,Read,ACK
3.440710125000000,250,0x07,0x00,Read,ACK
3.440820025000000,250,0x07,0x00,Read,ACK
3.440929925000000,250,0x07,0x00,Read,ACK
3.441039825000000,250,0x07,0x00,Read,NAK
3.464790750000000,251,0x81,0x0A,Read,ACK
3.464900650000000,251,0x81,0x00,Read,ACK
3.465010550000000,251,0x81,0x00,Read,ACK
3.465120450000000,251,0x81,0x00,Read,ACK
3.465230350000000,251,0x81,0x02,Read,ACK
3.465340250000000,251,0x81,0x76,Read,ACK
3.465450150000000,251,0x81,0x0C,Read,ACK
3.465560050000000,251,0x81,0xE4,Read,ACK
3.465669925000000,251,0x81,0x00,Read,ACK
3.465779825000000,251,0x81,0x00,Read,ACK
3.465889725000000,251,0x81,0x00,Read,ACK
3.465999625000000,251,0x81,0x00,Read,ACK
3.466109525000000,251,0x81,0x00,Read,ACK
3.466219400000000,251,0x81,0x00,Read,ACK
3.466329300000000,251,0x81,0x00,Read,ACK
3.466439200000000,251,0x81,0x00,Read,NAK
3.530965375000000,252,0x07,0x03,Read,ACK
3.531075275000000,252,0x07,0x00,Read,ACK
3.531185175000000,252,0x07,0x00,Read,ACK
3.531295050000000,252,0x07,0x00,Read,ACK
3.531404950000000,252,0x07,0x00,Read,ACK
3.531514825000000,252,0x07,0x00,Read,ACK
3.531624725000000,252,0x07,0x00,Read,ACK
3.531734625000000,252,0x07,0x00,Read,ACK
3.531844525000000,252,0x07,0x00,Read,ACK
3.531954425000000,252,0x07,0x00,Read,ACK
3.532064300000000,252,0x07,0x00,Read,ACK
3.532174200000000,252,0x07,0x00,Read,ACK
3.532284100000000,252,0x07,0x00,Read,ACK
3.532394000000000,252,0x07,0x00,Read,ACK
3.532503875000000,252,0x07,0x00,Read,ACK
3.532613775000000,252,0x07,0x00,Read,NAK
3.552803475000000,253,0x81,0x40,Read,ACK
3.552913350000000,253,0x81,0x00,Read,ACK
3.553023250000000,253,0x81,0x1B,Read,ACK
3.553133150000000,253,0x81,0x76,Read,ACK
3.553243050000000,253,0x81,0x00,Read,ACK
3.553352925000000,253,0x81,0x00,Read,ACK
3.553462825000000,253,0x81,0x00,Read,ACK
3.553572725000000,253,0x81,0x00,Read,ACK
3.553682625000000,253,0x81,0x00,Read,ACK
3.553792525000000,253,0x81,0x00,Read,ACK
3.553902400000000,253,0x81,0x00,Read,ACK
3.554012300000000,253,0x81,0x00,Read,ACK
3.554122175000000,253,0x81,0x00,Read,ACK
3.554232075000000,253,0x81,0x00,Read,ACK
3.554341975000000,253,0x81,0x00,Read,ACK
3.554451875000000,253,0x81,0x00,Read,NAK
3.618980800000000,254,0x07,0x0A,Read,ACK
3.619090700000000,254,0x07,0x00,Read,ACK
3.619200600000000,254,0x07,0x00,Read,ACK
3.619310500000000,254,0x07,0x00,Read,ACK
3.619420425000000,254,0x07,0x02,Read,ACK
3.619530325000000,254,0x07,0x76,Read,ACK
3.619640225000000,254,0x07,0x0C,Read,ACK
3.619750125000000,254,0x07,0xE4,Read,ACK
3.619860025000000,254,0x07,0x00,Read,ACK
3.619969950000000,254,0x07,0x00,Read,ACK
3.620079850000000,254,0x07,0x00,Read,ACK
3.620189750000000,254,0x07,0x00,Read,ACK
3.620299650000000,254,0x07,0x00,Read,ACK
3.620409550000000,254,0x07,0x00,Read,ACK
3.620519450000000,254,0x07,0x00,Read,ACK
3.620629350000000,254,0x07,0x00,Read,NAK
3.640823125000000,255,0x81,0x03,Read,ACK
3.640933025000000,255,0x81,0x00,Read,ACK
3.641042925000000,255,0x81,0x00,Read,ACK
3.641152825000000,255,0x81,0x00,Read,ACK
3.641262725000000,255,0x81,0x00,Read,ACK
3.641372650000000,255,0x81,0x00,Read,ACK
3.641482550000000,255,0x81,0x00,Read,ACK
3.641592450000000,255,0x81,0x00,Read,ACK
3.641702325000000,255,0x81,0x00,Read,ACK
3.641812225000000,255,0x81,0x00,Read,ACK
3.641922125000000,255,0x81,0x00,Read,ACK
3.642032050000000,255,0x81,0x00,Read,ACK
3.642141950000000,255,0x81,0x00,Read,ACK
3.642251850000000,255,0x81,0x00,Read,ACK
3.642361750000000,255,0x81,0x00,Read,ACK
3.642471675000000,255,0x81,0x00,Read,NAK
3.707000925000000,256,0x07,0x40,Read,ACK
3.707110825000000,256,0x07,0x00,Read,ACK
3.707220725000000,256,0x07,0x19,Read,ACK
3.707330625000000,256,0x07,0x71,Read,ACK
3.707440525000000,256,0x07,0x00,Read,ACK
3.707550425000000,256,0x07,0x00,Read,ACK
3.707660325000000,256,0x07,0x00,Read,ACK
3.707770225000000,256,0x07,0x00,Read,ACK
3.707880125000000,256,0x07,0x00,Read,ACK
3.707990025000000,256,0x07,0x00,Read,ACK
3.708099925000000,256,0x07,0x00,Read,ACK
3.708209825000000,256,0x07,0x00,Read,ACK
3.708319725000000,256,0x07,0x00,Read,ACK
3.708429625000000,256,0x07,0x00,Read,ACK
3.708539525000000,256,0x07,0x00,Read,ACK
3.708649425000000,256,0x07,0x00,Read,NAK
3.728838925000000,257,0x81,0x0A,Read,ACK
3.728948825000000,257,0x81,0x00,Read,ACK
3.729058725000000,257,0x81,0x00,Read,ACK
3.729168625000000,257,0x81,0x00,Read,ACK
3.729278525000000,257,0x81,0x02,Read,ACK
3.729388425000000,257,0x81,0x77,Read,ACK
3.729498300000000,257,0x81,0x0C,Read,ACK
3.729608200000000,257,0x81,0xE4,Read,ACK
3.729718100000000,257,0x81,0x00,Read,ACK
3.729828000000000,257,0x81,0x00,Read,ACK
3.729937900000000,257,0x81,0x00,Read,ACK
3.730047800000000,257,0x81,0x00,Read,ACK
3.730157700000000,257,0x81,0x00,Read,ACK
3.730267575000000,257,0x81,0x00,Read,ACK
3.730377475000000,257,0x81,0x00,Read,ACK
3.730487375000000,257,0x81,0x00,Read,NAK
3.795009675000000,258,0x07,0x03,Read,ACK
3.795119575000000,258,0x07,0x00,Read,ACK
3.795229475000000,258,0x07,0x00,Read,ACK
3.795339375000000,258,0x07,0x00,Read,ACK
3.795449275000000,258,0x07,0x00,Read,ACK
3.795559150000000,258,0x07,0x00,Read,ACK
3.795669050000000,258,0x07,0x00,Read,ACK
3.795778950000000,258,0x07,0x00,Read,ACK
3.795888850000000,258,0x07,0x00,Read,ACK
3.795998750000000,258,0x07,0x00,Read,ACK
3.796108650000000,258,0x07,0x00,Read,ACK
3.796218550000000,258,0x07,0x00,Read,ACK
3.796328450000000,258,0x07,0x00,Read,ACK
3.796438350000000,258,0x07,0x00,Read,ACK
3.796548250000000,258,0x07,0x00,Read,ACK
3.796658150000000,258,0x07,0x00,Read,NAK
3.816849400000000,259,0x81,0x40,Read,ACK
3.816959300000000,259,0x81,0x00,Read,ACK
3.817069875000000,259,0x81,0x17,Read,ACK
3.817179775000000,259,0x81,0x0D,Read,ACK
3.817289675000000,259,0x81,0x00,Read,ACK
3.817399575000000,259,0x81,0x00,Read,ACK
3.817509475000000,259,0x81,0x00,Read,ACK
3.817619375000000,259,0x81,0x00,Read,ACK
3.817729275000000,259,0x81,0x00,Read,ACK
3.817839175000000,259,0x81,0x00,Read,ACK
3.817949725000000,259,0x81,0x00,Read,ACK
3.818059625000000,259,0x81,0x00,Read,ACK
3.818169525000000,259,0x81,0x00,Read,ACK
3.818279425000000,259,0x81,0x00,Read,ACK
3.818389325000000,259,0x81,0x00,Read,ACK
3.818499225000000,259,0x81,0x00,Read,NAK
3.883028075000000,260,0x07,0x0A,Read,ACK
3.883137975000000,260,0x07,0x00,Read,ACK
3.883247875000000,260,0x07,0x00,Read,ACK
3.883357775000000,260,0x07,0x00,Read,ACK
3.883467675000000,260,0x07,0x02,Read,ACK
3.883577550000000,260,0x07,0x77,Read,ACK
3.883687450000000,260,0x07,0x0C,Read,ACK
3.883797350000000,260,0x07,0xE4,Read,ACK
3.883907250000000,260,0x07,0x00,Read,ACK
3.884017125000000,260,0x07,0x00,Read,ACK
3.884127700000000,260,0x07,0x00,Read,ACK
3.884237600000000,260,0x07,0x00,Read,ACK
3.884347475000000,260,0x07,0x00,Read,ACK
3.884457375000000,260,0x07,0x00,Read,ACK
3.884567275000000,260,0x07,0x00,Read,ACK
3.884677150000000,260,0x07,0x00,Read,NAK
3.904865450000000,261,0x81,0x03,Read,ACK
3.904975350000000,261,0x81,0x00,Read,ACK
3.905085250000000,261,0x81,0x00,Read,ACK
3.905195150000000,261,0x81,0x00,Read,ACK
3.905305050000000,261,0x81,0x00,Read,ACK
3.905414950000000,261,0x81,0x00,Read,ACK
3.905524825000000,261,0x81,0x00,Read,ACK
3.905634725000000,261,0x81,0x00,Read,ACK
3.905744625000000,261,0x81,0x00,Read,ACK
3.905854525000000,261,0x81,0x00,Read,ACK
3.905964425000000,261,0x81,0x00,Read,ACK
3.906074325000000,261,0x81,0x00,Read,ACK
3.906184225000000,261,0x81,0x00,Read,ACK
3.906294125000000,261,0x81,0x00,Read,ACK
3.906404025000000,261,0x81,0x00,Read,ACK
3.906513900000000,261,0x81,0x00,Read,NAK
3.971035425000000,262,0x07,0x40,Read,ACK
3.971145975000000,262,0x07,0x00,Read,ACK
3.971255900000000,262,0x07,0x15,Read,ACK
3.971366450000000,262,0x07,0xF8,Read,ACK
3.971476350000000,262,0x07,0x00,Read,ACK
3.971586250000000,262,0x07,0x00,Read,ACK
3.971696150000000,262,0x07,0x00,Read,ACK
3.971806050000000,262,0x07,0x00,Read,ACK
3.971915950000000,262,0x07,0x00,Read,ACK
3.972025850000000,262,0x07,0x00,Read,ACK
3.972135750000000,262,0x07,0x00,Read,ACK
3.972246300000000,262,0x07,0x00,Read,ACK
3.972356200000000,262,0x07,0x00,Read,ACK
3.972466100000000,262,0x07,0x00,Read,ACK
3.972576000000000,262,0x07,0x00,Read,ACK
3.972685900000000,262,0x07,0x00,Read,NAK
3.992764225000000,263,0x81,0x0A,Read,ACK
3.992874125000000,263,0x81,0x00,Read,ACK
3.992984025000000,263,0x81,0x00,Read,ACK
3.993093925000000,263,0x81,0x01,Read,ACK
3.993203825000000,263,0x81,0x02,Read,ACK
3.993313725000000,263,0x81,0x77,Read,ACK
3.993423625000000,263,0x81,0x0C,Read,ACK
3.993533525000000,263,0x81,0xE4,Read,ACK
3.993643425000000,263,0x81,0x00,Read,ACK
3.993753325000000,263,0x81,0x00,Read,ACK
3.993863225000000,263,0x81,0x00,Read,ACK
3.993973125000000,263,0x81,0x00,Read,ACK
3.994083000000000,263,0x81,0x00,Read,ACK
3.994192900000000,263,0x81,0x00,Read,ACK
3.994302800000000,263,0x81,0x00,Read,ACK
3.994412675000000,263,0x81,0x00,Read,NAK
4.059047000000000,264,0x07,0x03,Read,ACK
4.059156900000000,264,0x07,0x00,Read,ACK
4.059266775000000,264,0x07,0x00,Read,ACK
4.059376675000000,264,0x07,0x00,Read,ACK
4.059486575000000,264,0x07,0x00,Read,ACK
4.059596500000000,264,0x07,0x00,Read,ACK
4.059706400000000,264,0x07,0x00,Read,ACK
4.059816300000000,264,0x07,0x00,Read,ACK
4.059926200000000,264,0x07,0x00,Read,ACK
4.060036125000000,264,0x07,0x00,Read,ACK
4.060146675000000,264,0x07,0x00,Read,ACK
4.060256575000000,264,0x07,0x00,Read,ACK
4.060366475000000,264,0x07,0x00,Read,ACK
4.060476375000000,264,0x07,0x00,Read,ACK
4.060586275000000,264,0x07,0x00,Read,ACK
4.060696175000000,264,0x07,0x00,Read,NAK
4.080779575000000,265,0x81,0x40,Read,ACK
4.080889475000000,265,0x81,0x00,Read,ACK
4.080999350000000,265,0x81,0x14,Read,ACK
4.081109250000000,265,0x81,0x02,Read,ACK
4.081219150000000,265,0x81,0x00,Read,ACK
4.081329050000000,265,0x81,0x00,Read,ACK
4.081438975000000,265,0x81,0x00,Read,ACK
4.081548875000000,265,0x81,0x00,Read,ACK
4.081658775000000,265,0x81,0x00,Read,ACK
4.081768675000000,265,0x81,0x00,Read,ACK
4.081878575000000,265,0x81,0x00,Read,ACK
4.081988500000000,265,0x81,0x00,Read,ACK
4.082098375000000,265,0x81,0x00,Read,ACK
4.082208275000000,265,0x81,0x00,Read,ACK
4.082318175000000,265,0x81,0x00,Read,ACK
4.082428075000000,265,0x81,0x00,Read,NAK
4.146960675000000,266,0x07,0x0A,Read,ACK
4.147070575000000,266,0x07,0x00,Read,ACK
4.147180475000000,266,0x07,0x00,Read,ACK
4.147290350000000,266,0x07,0x01,Read,ACK
4.147400250000000,266,0x07,0x02,Read,ACK
4.147510150000000,266,0x07,0x77,Read,ACK
4.147620050000000,266,0x07,0x0C,Read,ACK
4.147729925000000,266,0x07,0xE4,Read,ACK
4.147839825000000,266,0x07,0x00,Read,ACK
4.147949725000000,266,0x07,0x00,Read,ACK
4.148059625000000,266,0x07,0x00,Read,ACK
4.148169500000000,266,0x07,0x00,Read,ACK
4.148279400000000,266,0x07,0x00,Read,ACK
4.148389300000000,266,0x07,0x00,Read,ACK
4.148499175000000,266,0x07,0x00,Read,ACK
4.148609075000000,266,0x07,0x00,Read,NAK
4.168788425000000,267,0x81,0x03,Read,ACK
4.168899000000000,267,0x81,0x00,Read,ACK
4.169008875000000,267,0x81,0x00,Read,ACK
4.169118775000000,267,0x81,0x00,Read,ACK
4.169228675000000,267,0x81,0x00,Read,ACK
4.169338550000000,267,0x81,0x00,Read,ACK
4.169449100000000,267,0x81,0x00,Read,ACK
4.169559000000000,267,0x81,0x00,Read,ACK
4.169668900000000,267,0x81,0x00,Read,ACK
4.169778800000000,267,0x81,0x00,Read,ACK
4.169888675000000,267,0x81,0x00,Read,ACK
4.169998575000000,267,0x81,0x00,Read,ACK
4.170108475000000,267,0x81,0x00,Read,ACK
4.170218350000000,267,0x81,0x00,Read,ACK
4.170328900000000,267,0x81,0x00,Read,ACK
4.170438800000000,267,0x81,0x00,Read,NAK
4.234965075000000,268,0x07,0x40,Read,ACK
4.235074975000000,268,0x07,0x00,Read,ACK
4.235184875000000,268,0x07,0x12,Read,ACK
4.235294800000000,268,0x07,0xB3,Read,ACK
4.235404700000000,268,0x07,0x00,Read,ACK
4.235514600000000,268,0x07,0x00,Read,ACK
4.235624500000000,268,0x07,0x00,Read,ACK
4.235734400000000,268,0x07,0x00,Read,ACK
4.235844300000000,268,0x07,0x00,Read,ACK
4.235954200000000,268,0x07,0x00,Read,ACK
4.236064100000000,268,0x07,0x00,Read,ACK
4.236174000000000,268,0x07,0x00,Read,ACK
4.236283925000000,268,0x07,0x00,Read,ACK
4.236393825000000,268,0x07,0x00,Read,ACK
4.236503725000000,268,0x07,0x00,Read,ACK
4.236613625000000,268,0x07,0x00,Read,NAK
4.256807625000000,269,0x81,0x0A,Read,ACK
4.256917525000000,269,0x81,0x00,Read,ACK
4.257027400000000,269,0x81,0x00,Read,ACK
4.257137300000000,269,0x81,0x01,Read,ACK
4.257247200000000,269,0x81,0x02,Read,ACK
4.257357100000000,269,0x81,0x77,Read,ACK
4.257467000000000,269,0x81,0x0C,Read,ACK
4.257576900000000,269,0x81,0xE4,Read,ACK
4.257686775000000,269,0x81,0x00,Read,ACK
4.257796675000000,269,0x81,0x00,Read,ACK
4.257906575000000,269,0x81,0x00,Read,ACK
4.258016475000000,269,0x81,0x00,Read,ACK
4.258126350000000,269,0x81,0x00,Read,ACK
4.258236250000000,269,0x81,0x00,Read,ACK
4.258346150000000,269,0x81,0x00,Read,ACK
4.258456050000000,269,0x81,0x00,Read,NAK
4.322986175000000,270,0x07,0x03,Read,ACK
4.323096075000000,270,0x07,0x00,Read,ACK
4.323205975000000,270,0x07,0x00,Read,ACK
4.323315875000000,270,0x07,0x00,Read,ACK
4.323425750000000,270,0x07,0x00,Read,ACK
4.323535650000000,270,0x07,0x00,Read,ACK
4.323645550000000,270,0x07,0x00,Read,ACK
4.323755425000000,270,0x07,0x00,Read,ACK
4.323865325000000,270,0x07,0x00,Read,ACK
4.323975200000000,270,0x07,0x00,Read,ACK
4.324085100000000,270,0x07,0x00,Read,ACK
4.324194975000000,270,0x07,0x00,Read,ACK
4.324304875000000,270,0x07,0x00,Read,ACK
4.324414775000000,270,0x07,0x00,Read,ACK
4.324524675000000,270,0x07,0x00,Read,ACK
4.324634575000000,270,0x07,0x00,Read,NAK
4.344818900000000,271,0x81,0x40,Read,ACK
4.344929475000000,271,0x81,0x00,Read,ACK
4.345039375000000,271,0x81,0x11,Read,ACK
4.345149275000000,271,0x81,0x25,Read,ACK
4.345259175000000,271,0x81,0x00,Read,ACK
4.345369075000000,271,0x81,0x00,Read,ACK
4.345479650000000,271,0x81,0x00,Read,ACK
4.345589550000000,271,0x81,0x00,Read,ACK
4.345699450000000,271,0x81,0x00,Read,ACK
4.345809325000000,271,0x81,0x00,Read,ACK
4.345919225000000,271,0x81,0x00,Read,ACK
4.346029125000000,271,0x81,0x00,Read,ACK
4.346139025000000,271,0x81,0x00,Read,ACK
4.346248925000000,271,0x81,0x00,Read,ACK
4.346359475000000,271,0x81,0x00,Read,ACK
4.346469375000000,271,0x81,0x00,Read,NAK
4.410995975000000,272,0x07,0x0A,Read,ACK
4.411105875000000,272,0x07,0x00,Read,ACK
4.411215775000000,272,0x07,0x00,Read,ACK
4.411325650000000,272,0x07,0x01,Read,ACK
4.411435550000000,272,0x07,0x02,Read,ACK
4.411545450000000,272,0x07,0x77,Read,ACK
4.411655325000000,272,0x07,0x0C,Read,ACK
4.411765225000000,272,0x07,0xE4,Read,ACK
4.411875125000000,272,0x07,0x00,Read,ACK
4.411985025000000,272,0x07,0x00,Read,ACK
4.412094925000000,272,0x07,0x00,Read,ACK
4.412204800000000,272,0x07,0x00,Read,ACK
4.412314700000000,272,0x07,0x00,Read,ACK
4.412424600000000,272,0x07,0x00,Read,ACK
4.412534500000000,272,0x07,0x00,Read,ACK
4.412644400000000,272,0x07,0x00,Read,NAK
4.432834325000000,273,0x81,0x03,Read,ACK
4.432944225000000,273,0x81,0x00,Read,ACK
4.433054125000000,273,0x81,0x00,Read,ACK
4.433164025000000,273,0x81,0x00,Read,ACK
4.433273925000000,273,0x81,0x00,Read,ACK
4.433383825000000,273,0x81,0x00,Read,ACK
4.433493700000000,273,0x81,0x00,Read,ACK
4.433603600000000,273,0x81,0x00,Read,ACK
4.433713500000000,273,0x81,0x00,Read,ACK
4.433823400000000,273,0x81,0x00,Read,ACK
4.433933275000000,273,0x81,0x00,Read,ACK
4.434043175000000,273,0x81,0x00,Read,ACK
4.434153075000000,273,0x81,0x00,Read,ACK
4.434262975000000,273,0x81,0x00,Read,ACK
4.434372850000000,273,0x81,0x00,Read,ACK
4.434482750000000,273,0x81,0x00,Read,NAK
4.499017475000000,274,0x07,0x40,Read,ACK
4.499127375000000,274,0x07,0x00,Read,ACK
4.499237275000000,274,0x07,0x10,Read,ACK
4.499347200000000,274,0x07,0x70,Read,ACK
4.499457100000000,274,0x07,0x00,Read,ACK
4.499567000000000,274,0x07,0x00,Read,ACK
4.499676900000000,274,0x07,0x00,Read,ACK
4.499786800000000,274,0x07,0x00,Read,ACK
4.499896725000000,274,0x07,0x00,Read,ACK
4.500006625000000,274,0x07,0x00,Read,ACK
4.500116550000000,274,0x07,0x00,Read,ACK
4.500226450000000,274,0x07,0x00,Read,ACK
4.500336350000000,274,0x07,0x00,Read,ACK
4.500446250000000,274,0x07,0x00,Read,ACK
4.500556150000000,274,0x07,0x00,Read,ACK
4.500666050000000,274,0x07,0x00,Read,NAK
4.520858300000000,275,0x81,0x0A,Read,ACK
4.520968200000000,275,0x81,0x00,Read,ACK
4.521078100000000,275,0x81,0x00,Read,ACK
4.521188000000000,275,0x81,0x01,Read,ACK
4.521297900000000,275,0x81,0x02,Read,ACK
4.521407775000000,275,0x81,0x77,Read,ACK
4.521517675000000,275,0x81,0x0C,Read,ACK
4.521627575000000,275,0x81,0xE4,Read,ACK
4.521737475000000,275,0x81,0x00,Read,ACK
4.521847375000000,275,0x81,0x00,Read,ACK
4.521957275000000,275,0x81,0x00,Read,ACK
4.522067200000000,275,0x81,0x00,Read,ACK
4.522177100000000,275,0x81,0x00,Read,ACK
4.522287000000000,275,0x81,0x00,Read,ACK
4.522396875000000,275,0x81,0x00,Read,ACK
4.522506775000000,275,0x81,0x00,Read,NAK
4.587028575000000,276,0x07,0x03,Read,ACK
4.587138475000000,276,0x07,0x00,Read,ACK
4.587248400000000,276,0x07,0x00,Read,ACK
4.587358300000000,276,0x07,0x00,Read,ACK
4.587468200000000,276,0x07,0x00,Read,ACK
4.587578100000000,276,0x07,0x00,Read,ACK
4.587688025000000,276,0x07,0x00,Read,ACK
4.587797925000000,276,0x07,0x00,Read,ACK
4.587907825000000,276,0x07,0x00,Read,ACK
4.588017725000000,276,0x07,0x00,Read,ACK
4.588128300000000,276,0x07,0x00,Read,ACK
4.588238225000000,276,0x07,0x00,Read,ACK
4.588348125000000,276,0x07,0x00,Read,ACK
4.588458025000000,276,0x07,0x00,Read,ACK
4.588567925000000,276,0x07,0x00,Read,ACK
4.588677825000000,276,0x07,0x00,Read,NAK
4.608768300000000,277,0x81,0x40,Read,ACK
4.608878200000000,277,0x81,0x00,Read,ACK
4.608988100000000,277,0x81,0x0F,Read,ACK
4.609098000000000,277,0x81,0x29,Read,ACK
4.609207925000000,277,0x81,0x00,Read,ACK
4.609317825000000,277,0x81,0x00,Read,ACK
4.609427725000000,277,0x81,0x00,Read,ACK
4.609537625000000,277,0x81,0x00,Read,ACK
4.609647550000000,277,0x81,0x00,Read,ACK
4.609757450000000,277,0x81,0x00,Read,ACK
4.609867350000000,277,0x81,0x00,Read,ACK
4.609977250000000,277,0x81,0x00,Read,ACK
4.610087150000000,277,0x81,0x00,Read,ACK
4.610197025000000,277,0x81,0x00,Read,ACK
4.610306950000000,277,0x81,0x00,Read,ACK
4.610416850000000,277,0x81,0x00,Read,NAK
4.675059025000000,278,0x07,0x0A,Read,ACK
4.675168925000000,278,0x07,0x00,Read,ACK
4.675278850000000,278,0x07,0x00,Read,ACK
4.675388750000000,278,0x07,0x01,Read,ACK
4.675498650000000,278,0x07,0x02,Read,ACK
4.675608550000000,278,0x07,0x77,Read,ACK
4.675718450000000,278,0x07,0x0C,Read,ACK
4.675828350000000,278,0x07,0xE4,Read,ACK
4.675938250000000,278,0x07,0x00,Read,ACK
4.676048150000000,278,0x07,0x00,Read,ACK
4.676158075000000,278,0x07,0x00,Read,ACK
4.676267950000000,278,0x07,0x00,Read,ACK
4.676377850000000,278,0x07,0x00,Read,ACK
4.676487775000000,278,0x07,0x00,Read,ACK
4.676597650000000,278,0x07,0x00,Read,ACK
4.676707550000000,278,0x07,0x00,Read,NAK
4.696791525000000,279,0x81,0x03,Read,ACK
4.696901425000000,279,0x81,0x00,Read,ACK
4.697011325000000,279,0x81,0x00,Read,ACK
4.697121225000000,279,0x81,0x00,Read,ACK
4.697231125000000,279,0x81,0x00,Read,ACK
4.697341050000000,279,0x81,0x00,Read,ACK
4.697450950000000,279,0x81,0x00,Read,ACK
4.697560850000000,279,0x81,0x00,Read,ACK
4.697670750000000,279,0x81,0x00,Read,ACK
4.697780650000000,279,0x81,0x00,Read,ACK
4.697890550000000,279,0x81,0x00,Read,ACK
4.698000450000000,279,0x81,0x00,Read,ACK
4.698110350000000,279,0x81,0x00,Read,ACK
4.698220250000000,279,0x81,0x00,Read,ACK
4.698330150000000,279,0x81,0x00,Read,ACK
4.698440050000000,279,0x81,0x00,Read,NAK
4.762969175000000,280,0x07,0x40,Read,ACK
4.763079725000000,280,0x07,0x00,Read,ACK
4.763189625000000,280,0x07,0x0E,Read,ACK
4.763300200000000,280,0x07,0x4F,Read,ACK
4.763410100000000,280,0x07,0x00,Read,ACK
4.763520000000000,280,0x07,0x00,Read,ACK
4.763629900000000,280,0x07,0x00,Read,ACK
4.763739800000000,280,0x07,0x00,Read,ACK
4.763849700000000,280,0x07,0x00,Read,ACK
4.763959600000000,280,0x07,0x00,Read,ACK
4.764069500000000,280,0x07,0x00,Read,ACK
4.764180050000000,280,0x07,0x00,Read,ACK
4.764289950000000,280,0x07,0x00,Read,ACK
4.764399850000000,280,0x07,0x00,Read,ACK
4.764509750000000,280,0x07,0x00,Read,ACK
4.764619650000000,280,0x07,0x00,Read,NAK
4.784809500000000,281,0x81,0x0A,Read,ACK
4.784920050000000,281,0x81,0x00,Read,ACK
4.785029950000000,281,0x81,0x00,Read,ACK
4.785139850000000,281,0x81,0x01,Read,ACK
4.785249750000000,281,0x81,0x02,Read,ACK
4.785359650000000,281,0x81,0x77,Read,ACK
4.785470200000000,281,0x81,0x0C,Read,ACK
4.785580100000000,281,0x81,0xE4,Read,ACK
4.785690000000000,281,0x81,0x00,Read,ACK
4.785799900000000,281,0x81,0x00,Read,ACK
4.785909800000000,281,0x81,0x00,Read,ACK
4.786019700000000,281,0x81,0x00,Read,ACK
4.786129600000000,281,0x81,0x00,Read,ACK
4.786239475000000,281,0x81,0x00,Read,ACK
4.786350050000000,281,0x81,0x00,Read,ACK
4.786459950000000,281,0x81,0x00,Read,NAK
4.850999025000000,282,0x07,0x03,Read,ACK
4.851109600000000,282,0x07,0x00,Read,ACK
4.851219500000000,282,0x07,0x00,Read,ACK
4.851330075000000,282,0x07,0x00,Read,ACK
4.851439975000000,282,0x07,0x00,Read,ACK
4.851549875000000,282,0x07,0x00,Read,ACK
4.851659775000000,282,0x07,0x00,Read,ACK
4.851769700000000,282,0x07,0x00,Read,ACK
4.851879600000000,282,0x07,0x00,Read,ACK
4.851989500000000,282,0x07,0x00,Read,ACK
4.852099400000000,282,0x07,0x00,Read,ACK
4.852209975000000,282,0x07,0x00,Read,ACK
4.852319875000000,282,0x07,0x00,Read,ACK
4.852429775000000,282,0x07,0x00,Read,ACK
4.852539675000000,282,0x07,0x00,Read,ACK
4.852649575000000,282,0x07,0x00,Read,NAK
4.872830775000000,283,0x81,0x40,Read,ACK
4.872940675000000,283,0x81,0x00,Read,ACK
4.873050575000000,283,0x81,0x0D,Read,ACK
4.873160475000000,283,0x81,0x4A,Read,ACK
4.873270375000000,283,0x81,0x00,Read,ACK
4.873380250000000,283,0x81,0x00,Read,ACK
4.873490150000000,283,0x81,0x00,Read,ACK
4.873600050000000,283,0x81,0x00,Read,ACK
4.873709950000000,283,0x81,0x00,Read,ACK
4.873819850000000,283,0x81,0x00,Read,ACK
4.873929750000000,283,0x81,0x00,Read,ACK
4.874039650000000,283,0x81,0x00,Read,ACK
4.874149550000000,283,0x81,0x00,Read,ACK
4.874259450000000,283,0x81,0x00,Read,ACK
4.874369350000000,283,0x81,0x00,Read,ACK
4.874479250000000,283,0x81,0x00,Read,NAK
4.939010675000000,284,0x07,0x0A,Read,ACK
4.939120575000000,284,0x07,0x00,Read,ACK
4.939230475000000,284,0x07,0x00,Read,ACK
4.939340375000000,284,0x07,0x01,Read,ACK
4.939450250000000,284,0x07,0x02,Read,ACK
4.939560150000000,284,0x07,0x77,Read,ACK
4.939670050000000,284,0x07,0x0C,Read,ACK
4.939779950000000,284,0x07,0xE4,Read,ACK
4.939889850000000,284,0x07,0x00,Read,ACK
4.939999750000000,284,0x07,0x00,Read,ACK
4.940110325000000,284,0x07,0x00,Read,ACK
4.940220225000000,284,0x07,0x00,Read,ACK
4.940330125000000,284,0x07,0x00,Read,ACK
4.940440025000000,284,0x07,0x00,Read,ACK
4.940549925000000,284,0x07,0x00,Read,ACK
4.940659825000000,284,0x07,0x00,Read,NAK
4.960848850000000,285,0x81,0x03,Read,ACK
4.960958775000000,285,0x81,0x00,Read,ACK
4.961068675000000,285,0x81,0x00,Read,ACK
4.961178575000000,285,0x81,0x00,Read,ACK
4.961288475000000,285,0x81,0x00,Read,ACK
4.961398375000000,285,0x81,0x00,Read,ACK
4.961508275000000,285,0x81,0x00,Read,ACK
4.961618175000000,285,0x81,0x00,Read,ACK
4.961728100000000,285,0x81,0x00,Read,ACK
4.961838000000000,285,0x81,0x00,Read,ACK
4.961947900000000,285,0x81,0x00,Read,ACK
4.962057825000000,285,0x81,0x00,Read,ACK
4.962167725000000,285,0x81,0x00,Read,ACK
4.962277625000000,285,0x81,0x00,Read,ACK
4.962387525000000,285,0x81,0x00,Read,ACK
4.962497450000000,285,0x81,0x00,Read,NAK
5.027021500000000,286,0x07,0x40,Read,ACK
5.027131425000000,286,0x07,0x00,Read,ACK
5.027241325000000,286,0x07,0x0C,Read,ACK
5.027351225000000,286,0x07,0x9B,Read,ACK
5.027461125000000,286,0x07,0x00,Read,ACK
5.027571025000000,286,0x07,0x00,Read,ACK
5.027680925000000,286,0x07,0x00,Read,ACK
5.027790825000000,286,0x07,0x00,Read,ACK
5.027900725000000,286,0x07,0x00,Read,ACK
5.028010625000000,286,0x07,0x00,Read,ACK
5.028120550000000,286,0x07,0x00,Read,ACK
5.028230450000000,286,0x07,0x00,Read,ACK
5.028340350000000,286,0x07,0x00,Read,ACK
5.028450250000000,286,0x07,0x00,Read,ACK
5.028560150000000,286,0x07,0x00,Read,ACK
5.028670050000000,286,0x07,0x00,Read,NAK
5.048860175000000,287,0x81,0x0A,Read,ACK
5.048970075000000,287,0x81,0x00,Read,ACK
5.049080000000000,287,0x81,0x00,Read,ACK
5.049189875000000,287,0x81,0x01,Read,ACK
5.049299775000000,287,0x81,0x02,Read,ACK
5.049409700000000,287,0x81,0x77,Read,ACK
5.049519600000000,287,0x81,0x0C,Read,ACK
5.049629500000000,287,0x81,0xE4,Read,ACK
5.049739400000000,287,0x81,0x00,Read,ACK
5.049849300000000,287,0x81,0x00,Read,ACK
5.049959225000000,287,0x81,0x00,Read,ACK
5.050069125000000,287,0x81,0x00,Read,ACK
5.050179025000000,287,0x81,0x00,Read,ACK
5.050288925000000,287,0x81,0x00,Read,ACK
5.050398850000000,287,0x81,0x00,Read,ACK
5.050508750000000,287,0x81,0x00,Read,NAK
5.115041500000000,288,0x07,0x03,Read,ACK
5.115152050000000,288,0x07,0x00,Read,ACK
5.115261950000000,288,0x07,0x00,Read,ACK
5.115372525000000,288,0x07,0x00,Read,ACK
5.115482425000000,288,0x07,0x00,Read,ACK
5.115592300000000,288,0x07,0x00,Read,ACK
5.115702225000000,288,0x07,0x00,Read,ACK
5.115812125000000,288,0x07,0x00,Read,ACK
5.115922025000000,288,0x07,0x00,Read,ACK
5.116031925000000,288,0x07,0x00,Read,ACK
5.116141825000000,288,0x07,0x00,Read,ACK
5.116252400000000,288,0x07,0x00,Read,ACK
5.116362300000000,288,0x07,0x00,Read,ACK
5.116472200000000,288,0x07,0x00,Read,ACK
5.116582100000000,288,0x07,0x00,Read,ACK
5.116692000000000,288,0x07,0x00,Read,NAK
5.136771050000000,289,0x81,0x40,Read,ACK
5.136880950000000,289,0x81,0x00,Read,ACK
5.136990850000000,289,0x81,0x0B,Read,ACK
5.137100750000000,289,0x81,0xFD,Read,ACK
5.137210650000000,289,0x81,0x00,Read,ACK
5.137320550000000,289,0x81,0x00,Read,ACK
5.137430450000000,289,0x81,0x00,Read,ACK
5.137540350000000,289,0x81,0x00,Read,ACK
5.137650250000000,289,0x81,0x00,Read,ACK
5.137760150000000,289,0x81,0x00,Read,ACK
5.137870050000000,289,0x81,0x00,Read,ACK
5.137979950000000,289,0x81,0x00,Read,ACK
5.138089850000000,289,0x81,0x00,Read,ACK
5.138199750000000,289,0x81,0x00,Read,ACK
5.138309650000000,289,0x81,0x00,Read,ACK
5.138419550000000,289,0x81,0x00,Read,NAK
5.203056125000000,290,0x07,0x0A,Read,ACK
5.203166025000000,290,0x07,0x00,Read,ACK
5.203275950000000,290,0x07,0x00,Read,ACK
5.203385850000000,290,0x07,0x01,Read,ACK
5.203495750000000,290,0x07,0x02,Read,ACK
5.203605650000000,290,0x07,0x77,Read,ACK
5.203715550000000,290,0x07,0x0C,Read,ACK
5.203825450000000,290,0x07,0xE4,Read,ACK
5.203935350000000,290,0x07,0x00,Read,ACK
5.204045250000000,290,0x07,0x00,Read,ACK
5.204155150000000,290,0x07,0x00,Read,ACK
5.204265050000000,290,0x07,0x00,Read,ACK
5.204374950000000,290,0x07,0x00,Read,ACK
5.204484850000000,290,0x07,0x00,Read,ACK
5.204594775000000,290,0x07,0x00,Read,ACK
5.204704675000000,290,0x07,0x00,Read,NAK
5.224785975000000,291,0x81,0x03,Read,ACK
5.224895900000000,291,0x81,0x00,Read,ACK
5.225005800000000,291,0x81,0x00,Read,ACK
5.225115700000000,291,0x81,0x00,Read,ACK
5.225225600000000,291,0x81,0x00,Read,ACK
5.225335500000000,291,0x81,0x00,Read,ACK
5.225445400000000,291,0x81,0x00,Read,ACK
5.225555300000000,291,0x81,0x00,Read,ACK
5.225665200000000,291,0x81,0x00,Read,ACK
5.225775100000000,291,0x81,0x00,Read,ACK
5.225885000000000,291,0x81,0x00,Read,ACK
5.225994900000000,291,0x81,0x00,Read,ACK
5.226104800000000,291,0x81,0x00,Read,ACK
5.226214700000000,291,0x81,0x00,Read,ACK
5.226324600000000,291,0x81,0x00,Read,ACK
5.226434500000000,291,0x81,0x00,Read,NAK
5.290964000000000,292,0x07,0x40,Read,ACK
5.291073900000000,292,0x07,0x00,Read,ACK
5.291183825000000,292,0x07,0x0B,Read,ACK
5.291293725000000,292,0x07,0x9B,Read,ACK
5.291403625000000,292,0x07,0x00,Read,ACK
5.291513525000000,292,0x07,0x00,Read,ACK
5.291623425000000,292,0x07,0x00,Read,ACK
5.291733350000000,292,0x07,0x00,Read,ACK
5.291843250000000,292,0x07,0x00,Read,ACK
5.291953150000000,292,0x07,0x00,Read,ACK
5.292063050000000,292,0x07,0x00,Read,ACK
5.292172950000000,292,0x07,0x00,Read,ACK
5.292282850000000,292,0x07,0x00,Read,ACK
5.292392750000000,292,0x07,0x00,Read,ACK
5.292502650000000,292,0x07,0x00,Read,ACK
5.292612575000000,292,0x07,0x00,Read,NAK
5.312806850000000,293,0x81,0x0A,Read,ACK
5.312916750000000,293,0x81,0x00,Read,ACK
5.313026650000000,293,0x81,0x00,Read,ACK
5.313136550000000,293,0x81,0x01,Read,ACK
5.313246450000000,293,0x81,0x02,Read,ACK
5.313356350000000,293,0x81,0x77,Read,ACK
5.313466250000000,293,0x81,0x0C,Read,ACK
5.313576150000000,293,0x81,0xE4,Read,ACK
5.313686050000000,293,0x81,0x00,Read,ACK
5.313795950000000,293,0x81,0x00,Read,ACK
5.313905850000000,293,0x81,0x00,Read,ACK
5.314015750000000,293,0x81,0x00,Read,ACK
5.314125650000000,293,0x81,0x00,Read,ACK
5.314235550000000,293,0x81,0x00,Read,ACK
5.314345475000000,293,0x81,0x00,Read,ACK
5.314455375000000,293,0x81,0x00,Read,NAK
5.378979875000000,294,0x07,0x03,Read,ACK
5.379089800000000,294,0x07,0x00,Read,ACK
5.379199700000000,294,0x07,0x00,Read,ACK
5.379309600000000,294,0x07,0x00,Read,ACK
5.379419500000000,294,0x07,0x00,Read,ACK
5.379529400000000,294,0x07,0x00,Read,ACK
5.379639300000000,294,0x07,0x00,Read,ACK
5.379749200000000,294,0x07,0x00,Read,ACK
5.379859125000000,294,0x07,0x00,Read,ACK
5.379969025000000,294,0x07,0x00,Read,ACK
5.380078900000000,294,0x07,0x00,Read,ACK
5.380188800000000,294,0x07,0x00,Read,ACK
5.380298700000000,294,0x07,0x00,Read,ACK
5.380408600000000,294,0x07,0x00,Read,ACK
5.380518500000000,294,0x07,0x00,Read,ACK
5.380628400000000,294,0x07,0x00,Read,NAK
5.400811325000000,295,0x81,0x40,Read,ACK
5.400921900000000,295,0x81,0x00,Read,ACK
5.401031800000000,295,0x81,0x0A,Read,ACK
5.401141700000000,295,0x81,0xE8,Read,ACK
5.401251600000000,295,0x81,0x00,Read,ACK
5.401361475000000,295,0x81,0x00,Read,ACK
5.401472050000000,295,0x81,0x00,Read,ACK
5.401581950000000,295,0x81,0x00,Read,ACK
5.401691825000000,295,0x81,0x00,Read,ACK
5.401801725000000,295,0x81,0x00,Read,ACK
5.401911600000000,295,0x81,0x00,Read,ACK
5.402021500000000,295,0x81,0x00,Read,ACK
5.402131375000000,295,0x81,0x00,Read,ACK
5.402243100000000,295,0x81,0x00,Read,ACK
5.402352500000000,295,0x81,0x00,Read,ACK
5.402462400000000,295,0x81,0x00,Read,NAK
5.466990700000000,296,0x07,0x0A,Read,ACK
5.467100600000000,296,0x07,0x00,Read,ACK
5.467210500000000,296,0x07,0x00,Read,ACK
5.467320400000000,296,0x07,0x01,Read,ACK
5.467430300000000,296,0x07,0x02,Read,ACK
5.467540200000000,296,0x07,0x77,Read,ACK
5.467650075000000,296,0x07,0x0C,Read,ACK
5.467759975000000,296,0x07,0xE4,Read,ACK
5.467869875000000,296,0x07,0x00,Read,ACK
5.467979775000000,296,0x07,0x00,Read,ACK
5.468090325000000,296,0x07,0x00,Read,ACK
5.468200225000000,296,0x07,0x00,Read,ACK
5.468310125000000,296,0x07,0x00,Read,ACK
5.468420025000000,296,0x07,0x00,Read,ACK
5.468529925000000,296,0x07,0x00,Read,ACK
5.468639825000000,296,0x07,0x00,Read,NAK
5.488836950000000,297,0x81,0x03,Read,ACK
5.488946850000000,297,0x81,0x00,Read,ACK
5.489056750000000,297,0x81,0x00,Read,ACK
5.489166650000000,297,0x81,0x00,Read,ACK
5.489276550000000,297,0x81,0x00,Read,ACK
5.489386450000000,297,0x81,0x00,Read,ACK
5.489496325000000,297,0x81,0x00,Read,ACK
5.489606225000000,297,0x81,0x00,Read,ACK
5.489716125000000,297,0x81,0x00,Read,ACK
5.489826025000000,297,0x81,0x00,Read,ACK
5.489935925000000,297,0x81,0x00,Read,ACK
5.490045800000000,297,0x81,0x00,Read,ACK
5.490155700000000,297,0x81,0x00,Read,ACK
5.490265575000000,297,0x81,0x00,Read,ACK
5.490375475000000,297,0x81,0x00,Read,ACK
5.490485375000000,297,0x81,0x00,Read,NAK
5.555007425000000,298,0x07,0x40,Read,ACK
5.555117975000000,298,0x07,0x00,Read,ACK
5.555227875000000,298,0x07,0x0A,Read,ACK
5.555338450000000,298,0x07,0x71,Read,ACK
5.555448350000000,298,0x07,0x00,Read,ACK
5.555558250000000,298,0x07,0x00,Read,ACK
5.555668175000000,298,0x07,0x00,Read,ACK
5.555778075000000,298,0x07,0x00,Read,ACK
5.555887975000000,298,0x07,0x00,Read,ACK
5.555997900000000,298,0x07,0x00,Read,ACK
5.556107800000000,298,0x07,0x00,Read,ACK
5.556218350000000,298,0x07,0x00,Read,ACK
5.556328275000000,298,0x07,0x00,Read,ACK
5.556438175000000,298,0x07,0x00,Read,ACK
5.556548075000000,298,0x07,0x00,Read,ACK
5.556657975000000,298,0x07,0x00,Read,NAK
5.576851175000000,299,0x81,0x0A,Read,ACK
5.576961100000000,299,0x81,0x00,Read,ACK
5.577071000000000,299,0x81,0x00,Read,ACK
5.577180900000000,299,0x81,0x01,Read,ACK
5.577290825000000,299,0x81,0x02,Read,ACK
5.577400725000000,299,0x81,0x77,Read,ACK
5.577510625000000,299,0x81,0x0C,Read,ACK
5.577620525000000,299,0x81,0xE4,Read,ACK
5.577730450000000,299,0x81,0x00,Read,ACK
5.577840350000000,299,0x81,0x00,Read,ACK
5.577950250000000,299,0x81,0x00,Read,ACK
5.578060175000000,299,0x81,0x00,Read,ACK
5.578170075000000,299,0x81,0x00,Read,ACK
5.578280000000000,299,0x81,0x00,Read,ACK
5.578389900000000,299,0x81,0x00,Read,ACK
5.578499800000000,299,0x81,0x00,Read,NAK
5.643027600000000,300,0x07,0x03,Read,ACK
5.643138175000000,300,0x07,0x00,Read,ACK
5.643248075000000,300,0x07,0x00,Read,ACK
5.643358625000000,300,0x07,0x00,Read,ACK
5.643468525000000,300,0x07,0x00,Read,ACK
5.643578425000000,300,0x07,0x00,Read,ACK
5.643688325000000,300,0x07,0x00,Read,ACK
5.643798200000000,300,0x07,0x00,Read,ACK
5.643908100000000,300,0x07,0x00,Read,ACK
5.644018000000000,300,0x07,0x00,Read,ACK
5.644127900000000,300,0x07,0x00,Read,ACK
5.644238450000000,300,0x07,0x00,Read,ACK
5.644348350000000,300,0x07,0x00,Read,ACK
5.644458250000000,300,0x07,0x00,Read,ACK
5.644568150000000,300,0x07,0x00,Read,ACK
5.644678050000000,300,0x07,0x00,Read,NAK
5.664865425000000,301,0x81,0x40,Read,ACK
5.664975325000000,301,0x81,0x00,Read,ACK
5.665085225000000,301,0x81,0x09,Read,ACK
5.665195100000000,301,0x81,0xE3,Read,ACK
5.665305000000000,301,0x81,0x00,Read,ACK
5.665414900000000,301,0x81,0x00,Read,ACK
5.665524800000000,301,0x81,0x00,Read,ACK
5.665634700000000,301,0x81,0x00,Read,ACK
5.665744575000000,301,0x81,0x00,Read,ACK
5.665854475000000,301,0x81,0x00,Read,ACK
5.665964375000000,301,0x81,0x00,Read,ACK
5.666074275000000,301,0x81,0x00,Read,ACK
5.666184175000000,301,0x81,0x00,Read,ACK
5.666294075000000,301,0x81,0x00,Read,ACK
5.666403975000000,301,0x81,0x00,Read,ACK
5.666513875000000,301,0x81,0x00,Read,NAK
5.731043850000000,302,0x07,0x0A,Read,ACK
5.731153750000000,302,0x07,0x00,Read,ACK
5.731263650000000,302,0x07,0x00,Read,ACK
5.731373550000000,302,0x07,0x01,Read,ACK
5.731483450000000,302,0x07,0x02,Read,ACK
5.731593350000000,302,0x07,0x77,Read,ACK
5.731703250000000,302,0x07,0x0C,Read,ACK
5.731813150000000,302,0x07,0xE4,Read,ACK
5.731923050000000,302,0x07,0x00,Read,ACK
5.732032950000000,302,0x07,0x00,Read,ACK
5.732142850000000,302,0x07,0x00,Read,ACK
5.732252750000000,302,0x07,0x00,Read,ACK
5.732362650000000,302,0x07,0x00,Read,ACK
5.732472550000000,302,0x07,0x00,Read,ACK
5.732582450000000,302,0x07,0x00,Read,ACK
5.732692350000000,302,0x07,0x00,Read,NAK
5.752774100000000,303,0x81,0x03,Read,ACK
5.752884000000000,303,0x81,0x00,Read,ACK
5.752994575000000,303,0x81,0x00,Read,ACK
5.753104475000000,303,0x81,0x00,Read,ACK
5.753214375000000,303,0x81,0x00,Read,ACK
5.753324275000000,303,0x81,0x00,Read,ACK
5.753434175000000,303,0x81,0x00,Read,ACK
5.753544075000000,303,0x81,0x00,Read,ACK
5.753653975000000,303,0x81,0x00,Read,ACK
5.753763875000000,303,0x81,0x00,Read,ACK
5.753874450000000,303,0x81,0x00,Read,ACK
5.753984350000000,303,0x81,0x00,Read,ACK
5.754094250000000,303,0x81,0x00,Read,ACK
5.754204150000000,303,0x81,0x00,Read,ACK
5.754314075000000,303,0x81,0x00,Read,ACK
5.754423975000000,303,0x81,0x00,Read,NAK
5.819066925000000,304,0x07,0x40,Read,ACK
5.819176825000000,304,0x07,0x00,Read,ACK
5.819286750000000,304,0x07,0x09,Read,ACK
5.819396650000000,304,0x07,0xA2,Read,ACK
5.819506550000000,304,0x07,0x00,Read,ACK
5.819616475000000,304,0x07,0x00,Read,ACK
5.819726375000000,304,0x07,0x00,Read,ACK
5.819836275000000,304,0x07,0x00,Read,ACK
5.819946200000000,304,0x07,0x00,Read,ACK
5.820056100000000,304,0x07,0x00,Read,ACK
5.820166650000000,304,0x07,0x00,Read,ACK
5.820276575000000,304,0x07,0x00,Read,ACK
5.820386475000000,304,0x07,0x00,Read,ACK
5.820496375000000,304,0x07,0x00,Read,ACK
5.820606275000000,304,0x07,0x00,Read,ACK
5.820716175000000,304,0x07,0x00,Read,NAK
5.840794400000000,305,0x81,0x0A,Read,ACK
5.840904325000000,305,0x81,0x00,Read,ACK
5.841014875000000,305,0x81,0x00,Read,ACK
5.841124800000000,305,0x81,0x01,Read,ACK
5.841234700000000,305,0x81,0x02,Read,ACK
5.841344625000000,305,0x81,0x77,Read,ACK
5.841454525000000,305,0x81,0x0C,Read,ACK
5.841564425000000,305,0x81,0xE4,Read,ACK
5.841674350000000,305,0x81,0x00,Read,ACK
5.841784250000000,305,0x81,0x00,Read,ACK
5.841894825000000,305,0x81,0x00,Read,ACK
5.842004725000000,305,0x81,0x00,Read,ACK
5.842114625000000,305,0x81,0x00,Read,ACK
5.842224525000000,305,0x81,0x00,Read,ACK
5.842334450000000,305,0x81,0x00,Read,ACK
5.842444350000000,305,0x81,0x00,Read,NAK
5.906978375000000,306,0x07,0x03,Read,ACK
5.907088300000000,306,0x07,0x00,Read,ACK
5.907198200000000,306,0x07,0x00,Read,ACK
5.907308100000000,306,0x07,0x00,Read,ACK
5.907418000000000,306,0x07,0x00,Read,ACK
5.907527900000000,306,0x07,0x00,Read,ACK
5.907637825000000,306,0x07,0x00,Read,ACK
5.907747725000000,306,0x07,0x00,Read,ACK
5.907857625000000,306,0x07,0x00,Read,ACK
5.907967525000000,306,0x07,0x00,Read,ACK
5.908078100000000,306,0x07,0x00,Read,ACK
5.908188000000000,306,0x07,0x00,Read,ACK
5.908297900000000,306,0x07,0x00,Read,ACK
5.908407825000000,306,0x07,0x00,Read,ACK
5.908517725000000,306,0x07,0x00,Read,ACK
5.908627625000000,306,0x07,0x00,Read,NAK
5.928808575000000,307,0x81,0x40,Read,ACK
5.928918500000000,307,0x81,0x00,Read,ACK
5.929028400000000,307,0x81,0x09,Read,ACK
5.929138300000000,307,0x81,0x2E,Read,ACK
5.929248200000000,307,0x81,0x00,Read,ACK
5.929358100000000,307,0x81,0x00,Read,ACK
5.929468025000000,307,0x81,0x00,Read,ACK
5.929577925000000,307,0x81,0x00,Read,ACK
5.929687825000000,307,0x81,0x00,Read,ACK
5.929797725000000,307,0x81,0x00,Read,ACK
5.929907625000000,307,0x81,0x00,Read,ACK
5.930017525000000,307,0x81,0x00,Read,ACK
5.930127425000000,307,0x81,0x00,Read,ACK
5.930237325000000,307,0x81,0x00,Read,ACK
5.930347225000000,307,0x81,0x00,Read,ACK
5.930457125000000,307,0x81,0x00,Read,NAK
5.994987800000000,308,0x07,0x0A,Read,ACK
5.995097700000000,308,0x07,0x00,Read,ACK
5.995207600000000,308,0x07,0x00,Read,ACK
5.995317475000000,308,0x07,0x01,Read,ACK
5.995427375000000,308,0x07,0x02,Read,ACK
5.995537275000000,308,0x07,0x77,Read,ACK
5.995647175000000,308,0x07,0x0C,Read,ACK
5.995757075000000,308,0x07,0xE4,Read,ACK
5.995866975000000,308,0x07,0x00,Read,ACK
5.995976850000000,308,0x07,0x00,Read,ACK
5.996086750000000,308,0x07,0x00,Read,ACK
5.996196625000000,308,0x07,0x00,Read,ACK
5.996306550000000,308,0x07,0x00,Read,ACK
5.996416425000000,308,0x07,0x00,Read,ACK
5.996526325000000,308,0x07,0x00,Read,ACK
5.996636225000000,308,0x07,0x00,Read,NAK
6.016833725000000,309,0x81,0x03,Read,ACK
6.016943625000000,309,0x81,0x00,Read,ACK
6.017053550000000,309,0x81,0x00,Read,ACK
6.017163450000000,309,0x81,0x00,Read,ACK
6.017273350000000,309,0x81,0x00,Read,ACK
6.017383250000000,309,0x81,0x00,Read,ACK
6.017493150000000,309,0x81,0x00,Read,ACK
6.017603050000000,309,0x81,0x00,Read,ACK
6.017712950000000,309,0x81,0x00,Read,ACK
6.017822850000000,309,0x81,0x00,Read,ACK
6.017932750000000,309,0x81,0x00,Read,ACK
6.018042650000000,309,0x81,0x00,Read,ACK
6.018152550000000,309,0x81,0x00,Read,ACK
6.018262450000000,309,0x81,0x00,Read,ACK
6.018372350000000,309,0x81,0x00,Read,ACK
6.018482250000000,309,0x81,0x00,Read,NAK
6.083014025000000,310,0x07,0x40,Read,ACK
6.083123925000000,310,0x07,0x00,Read,ACK
6.083233825000000,310,0x07,0x08,Read,ACK
6.083343725000000,310,0x07,0xDF,Read,ACK
6.083453625000000,310,0x07,0x00,Read,ACK
6.083563525000000,310,0x07,0x00,Read,ACK
6.083673425000000,310,0x07,0x00,Read,ACK
6.083783325000000,310,0x07,0x00,Read,ACK
6.083893225000000,310,0x07,0x00,Read,ACK
6.084003125000000,310,0x07,0x00,Read,ACK
6.084113050000000,310,0x07,0x00,Read,ACK
6.084222950000000,310,0x07,0x00,Read,ACK
6.084332850000000,310,0x07,0x00,Read,ACK
6.084442750000000,310,0x07,0x00,Read,ACK
6.084552650000000,310,0x07,0x00,Read,ACK
6.084662575000000,310,0x07,0x00,Read,NAK
6.104853125000000,311,0x81,0x0A,Read,ACK
6.104963025000000,311,0x81,0x00,Read,ACK
6.105072925000000,311,0x81,0x00,Read,ACK
6.105182825000000,311,0x81,0x01,Read,ACK
6.105292750000000,311,0x81,0x02,Read,ACK
6.105402650000000,311,0x81,0x77,Read,ACK
6.105512550000000,311,0x81,0x0C,Read,ACK
6.105622450000000,311,0x81,0xE4,Read,ACK
6.105732375000000,311,0x81,0x00,Read,ACK
6.105842275000000,311,0x81,0x00,Read,ACK
6.105952175000000,311,0x81,0x00,Read,ACK
6.106062075000000,311,0x81,0x00,Read,ACK
6.106171975000000,311,0x81,0x00,Read,ACK
6.106281875000000,311,0x81,0x00,Read,ACK
6.106391800000000,311,0x81,0x00,Read,ACK
6.106501700000000,311,0x81,0x00,Read,NAK
6.171033200000000,312,0x07,0x03,Read,ACK
6.171143100000000,312,0x07,0x00,Read,ACK
6.171253000000000,312,0x07,0x00,Read,ACK
6.171362900000000,312,0x07,0x00,Read,ACK
6.171472800000000,312,0x07,0x00,Read,ACK
6.171582700000000,312,0x07,0x00,Read,ACK
6.171692600000000,312,0x07,0x00,Read,ACK
6.171802500000000,312,0x07,0x00,Read,ACK
6.171912425000000,312,0x07,0x00,Read,ACK
6.172022300000000,312,0x07,0x00,Read,ACK
6.172132875000000,312,0x07,0x00,Read,ACK
6.172242775000000,312,0x07,0x00,Read,ACK
6.172352675000000,312,0x07,0x00,Read,ACK
6.172462575000000,312,0x07,0x00,Read,ACK
6.172572475000000,312,0x07,0x00,Read,ACK
6.172682375000000,312,0x07,0x00,Read,NAK
6.192875925000000,313,0x81,0x40,Read,ACK
6.192986500000000,313,0x81,0x00,Read,ACK
6.193096400000000,313,0x81,0x08,Read,ACK
6.193206300000000,313,0x81,0x83,Read,ACK
6.193316200000000,313,0x81,0x00,Read,ACK
6.193426100000000,313,0x81,0x00,Read,ACK
6.193536675000000,313,0x81,0x00,Read,ACK
6.193646575000000,313,0x81,0x00,Read,ACK
6.193756475000000,313,0x81,0x00,Read,ACK
6.193866375000000,313,0x81,0x00,Read,ACK
6.193976275000000,313,0x81,0x00,Read,ACK
6.194086175000000,313,0x81,0x00,Read,ACK
6.194196075000000,313,0x81,0x00,Read,ACK
6.194305975000000,313,0x81,0x00,Read,ACK
6.194416525000000,313,0x81,0x00,Read,ACK
6.194526425000000,313,0x81,0x00,Read,NAK
6.259048125000000,314,0x07,0x0A,Read,ACK
6.259158675000000,314,0x07,0x00,Read,ACK
6.259268600000000,314,0x07,0x00,Read,ACK
6.259379150000000,314,0x07,0x01,Read,ACK
6.259489050000000,314,0x07,0x02,Read,ACK
6.259598975000000,314,0x07,0x77,Read,ACK
6.259708875000000,314,0x07,0x0C,Read,ACK
6.259818775000000,314,0x07,0xE4,Read,ACK
6.259928675000000,314,0x07,0x00,Read,ACK
6.260038600000000,314,0x07,0x00,Read,ACK
6.260148475000000,314,0x07,0x00,Read,ACK
6.260259050000000,314,0x07,0x00,Read,ACK
6.260368950000000,314,0x07,0x00,Read,ACK
6.260478850000000,314,0x07,0x00,Read,ACK
6.260588775000000,314,0x07,0x00,Read,ACK
6.260698675000000,314,0x07,0x00,Read,NAK
6.280778650000000,315,0x81,0x03,Read,ACK
6.280888550000000,315,0x81,0x00,Read,ACK
6.280998450000000,315,0x81,0x00,Read,ACK
6.281108375000000,315,0x81,0x00,Read,ACK
6.281218275000000,315,0x81,0x00,Read,ACK
6.281328175000000,315,0x81,0x00,Read,ACK
6.281438100000000,315,0x81,0x00,Read,ACK
6.281548000000000,315,0x81,0x00,Read,ACK
6.281657900000000,315,0x81,0x00,Read,ACK
6.281767800000000,315,0x81,0x00,Read,ACK
6.281877725000000,315,0x81,0x00,Read,ACK
6.281987625000000,315,0x81,0x00,Read,ACK
6.282097525000000,315,0x81,0x00,Read,ACK
6.282207425000000,315,0x81,0x00,Read,ACK
6.282317350000000,315,0x81,0x00,Read,ACK
6.282427250000000,315,0x81,0x00,Read,NAK
6.347063800000000,316,0x07,0x40,Read,ACK
6.347173700000000,316,0x07,0x00,Read,ACK
6.347283600000000,316,0x07,0x08,Read,ACK
6.347393500000000,316,0x07,0x58,Read,ACK
6.347503425000000,316,0x07,0x00,Read,ACK
6.347613325000000,316,0x07,0x00,Read,ACK
6.347723225000000,316,0x07,0x00,Read,ACK
6.347833125000000,316,0x07,0x00,Read,ACK
6.347943050000000,316,0x07,0x00,Read,ACK
6.348052950000000,316,0x07,0x00,Read,ACK
6.348163525000000,316,0x07,0x00,Read,ACK
6.348273425000000,316,0x07,0x00,Read,ACK
6.348383325000000,316,0x07,0x00,Read,ACK
6.348493225000000,316,0x07,0x00,Read,ACK
6.348603150000000,316,0x07,0x00,Read,ACK
6.348713050000000,316,0x07,0x00,Read,NAK
6.368794225000000,317,0x81,0x0A,Read,ACK
6.368904800000000,317,0x81,0x00,Read,ACK
6.369014700000000,317,0x81,0x00,Read,ACK
6.369124600000000,317,0x81,0x01,Read,ACK
6.369234500000000,317,0x81,0x02,Read,ACK
6.369344400000000,317,0x81,0x77,Read,ACK
6.369454975000000,317,0x81,0x0C,Read,ACK
6.369564875000000,317,0x81,0xE4,Read,ACK
6.369674775000000,317,0x81,0x00,Read,ACK
6.369784675000000,317,0x81,0x00,Read,ACK
6.369894600000000,317,0x81,0x00,Read,ACK
6.370004500000000,317,0x81,0x00,Read,ACK
6.370114400000000,317,0x81,0x00,Read,ACK
6.370224300000000,317,0x81,0x00,Read,ACK
6.370334875000000,317,0x81,0x00,Read,ACK
6.370444775000000,317,0x81,0x00,Read,NAK
6.434972250000000,318,0x07,0x03,Read,ACK
6.435082150000000,318,0x07,0x00,Read,ACK
6.435192050000000,318,0x07,0x00,Read,ACK
6.435301950000000,318,0x07,0x00,Read,ACK
6.435411850000000,318,0x07,0x00,Read,ACK
6.435521750000000,318,0x07,0x00,Read,ACK
6.435631650000000,318,0x07,0x00,Read,ACK
6.435741550000000,318,0x07,0x00,Read,ACK
6.435851450000000,318,0x07,0x00,Read,ACK
6.435961325000000,318,0x07,0x00,Read,ACK
6.436071225000000,318,0x07,0x00,Read,ACK
6.436181125000000,318,0x07,0x00,Read,ACK
6.436291025000000,318,0x07,0x00,Read,ACK
6.436400925000000,318,0x07,0x00,Read,ACK
6.436510825000000,318,0x07,0x00,Read,ACK
6.436620725000000,318,0x07,0x00,Read,NAK
6.456814625000000,319,0x81,0x40,Read,ACK
6.456924525000000,319,0x81,0x00,Read,ACK
6.457034400000000,319,0x81,0x08,Read,ACK
6.457144300000000,319,0x81,0x0C,Read,ACK
6.457254200000000,319,0x81,0x00,Read,ACK
6.457364100000000,319,0x81,0x00,Read,ACK
6.457474000000000,319,0x81,0x00,Read,ACK
6.457583875000000,319,0x81,0x00,Read,ACK
6.457693775000000,319,0x81,0x00,Read,ACK
6.457803675000000,319,0x81,0x00,Read,ACK
6.457913575000000,319,0x81,0x00,Read,ACK
6.458023475000000,319,0x81,0x00,Read,ACK
6.458133375000000,319,0x81,0x00,Read,ACK
6.458243275000000,319,0x81,0x00,Read,ACK
6.458353175000000,319,0x81,0x00,Read,ACK
6.458463075000000,319,0x81,0x00,Read,NAK
6.522994025000000,320,0x07,0x0A,Read,ACK
6.523103925000000,320,0x07,0x00,Read,ACK
6.523213850000000,320,0x07,0x00,Read,ACK
6.523323750000000,320,0x07,0x00,Read,ACK
6.523433650000000,320,0x07,0x02,Read,ACK
6.523543550000000,320,0x07,0x77,Read,ACK
6.523653450000000,320,0x07,0x0C,Read,ACK
6.523763350000000,320,0x07,0xE4,Read,ACK
6.523873250000000,320,0x07,0x00,Read,ACK
6.523983150000000,320,0x07,0x00,Read,ACK
6.524093050000000,320,0x07,0x00,Read,ACK
6.524202975000000,320,0x07,0x00,Read,ACK
6.524312875000000,320,0x07,0x00,Read,ACK
6.524422775000000,320,0x07,0x00,Read,ACK
6.524532650000000,320,0x07,0x00,Read,ACK
6.524642575000000,320,0x07,0x00,Read,NAK
6.544824000000000,321,0x81,0x03,Read,ACK
6.544934575000000,321,0x81,0x00,Read,ACK
6.545044475000000,321,0x81,0x00,Read,ACK
6.545154375000000,321,0x81,0x00,Read,ACK
6.545264300000000,321,0x81,0x00,Read,ACK
6.545374200000000,321,0x81,0x00,Read,ACK
6.545484750000000,321,0x81,0x00,Read,ACK
6.545594650000000,321,0x81,0x00,Read,ACK
6.545704550000000,321,0x81,0x00,Read,ACK
6.545814475000000,321,0x81,0x00,Read,ACK
6.545924375000000,321,0x81,0x00,Read,ACK
6.546034275000000,321,0x81,0x00,Read,ACK
6.546144175000000,321,0x81,0x00,Read,ACK
6.546254050000000,321,0x81,0x00,Read,ACK
6.546364625000000,321,0x81,0x00,Read,ACK
6.546474525000000,321,0x81,0x00,Read,NAK
6.611006025000000,322,0x07,0x40,Read,ACK
6.611115925000000,322,0x07,0x00,Read,ACK
6.611225825000000,322,0x07,0x07,Read,ACK
6.611335725000000,322,0x07,0xD8,Read,ACK
6.611445625000000,322,0x07,0x00,Read,ACK
6.611555500000000,322,0x07,0x00,Read,ACK
6.611665400000000,322,0x07,0x00,Read,ACK
6.611775300000000,322,0x07,0x00,Read,ACK
6.611885200000000,322,0x07,0x00,Read,ACK
6.611995100000000,322,0x07,0x00,Read,ACK
6.612104975000000,322,0x07,0x00,Read,ACK
6.612214875000000,322,0x07,0x00,Read,ACK
6.612324775000000,322,0x07,0x00,Read,ACK
6.612434675000000,322,0x07,0x00,Read,ACK
6.612544550000000,322,0x07,0x00,Read,ACK
6.612654450000000,322,0x07,0x00,Read,NAK
6.632846050000000,323,0x81,0x0A,Read,ACK
6.632955950000000,323,0x81,0x00,Read,ACK
6.633066525000000,323,0x81,0x00,Read,ACK
6.633176425000000,323,0x81,0x01,Read,ACK
6.633286325000000,323,0x81,0x02,Read,ACK
6.633396225000000,323,0x81,0x77,Read,ACK
6.633506150000000,323,0x81,0x0C,Read,ACK
6.633616050000000,323,0x81,0xE4,Read,ACK
6.633725950000000,323,0x81,0x00,Read,ACK
6.633835850000000,323,0x81,0x00,Read,ACK
6.633946425000000,323,0x81,0x00,Read,ACK
6.634056325000000,323,0x81,0x00,Read,ACK
6.634166225000000,323,0x81,0x00,Read,ACK
6.634276125000000,323,0x81,0x00,Read,ACK
6.634386025000000,323,0x81,0x00,Read,ACK
6.634495925000000,323,0x81,0x00,Read,NAK
6.699027600000000,324,0x07,0x03,Read,ACK
6.699137500000000,324,0x07,0x00,Read,ACK
6.699247400000000,324,0x07,0x00,Read,ACK
6.699357325000000,324,0x07,0x00,Read,ACK
6.699467225000000,324,0x07,0x00,Read,ACK
6.699577125000000,324,0x07,0x00,Read,ACK
6.699687025000000,324,0x07,0x00,Read,ACK
6.699796925000000,324,0x07,0x00,Read,ACK
6.699906850000000,324,0x07,0x00,Read,ACK
6.700016750000000,324,0x07,0x00,Read,ACK
6.700126650000000,324,0x07,0x00,Read,ACK
6.700236575000000,324,0x07,0x00,Read,ACK
6.700346475000000,324,0x07,0x00,Read,ACK
6.700456375000000,324,0x07,0x00,Read,ACK
6.700566275000000,324,0x07,0x00,Read,ACK
6.700676175000000,324,0x07,0x00,Read,NAK
6.720869075000000,325,0x81,0x40,Read,ACK
6.720979000000000,325,0x81,0x00,Read,ACK
6.721088900000000,325,0x81,0x07,Read,ACK
6.721198800000000,325,0x81,0x9C,Read,ACK
6.721308700000000,325,0x81,0x00,Read,ACK
6.721418600000000,325,0x81,0x00,Read,ACK
6.721528500000000,325,0x81,0x00,Read,ACK
6.721638400000000,325,0x81,0x00,Read,ACK
6.721748300000000,325,0x81,0x00,Read,ACK
6.721858200000000,325,0x81,0x00,Read,ACK
6.721968125000000,325,0x81,0x00,Read,ACK
6.722078025000000,325,0x81,0x00,Read,ACK
6.722187925000000,325,0x81,0x00,Read,ACK
6.722297825000000,325,0x81,0x00,Read,ACK
6.722407750000000,325,0x81,0x00,Read,ACK
6.722517650000000,325,0x81,0x00,Read,NAK
6.787040550000000,326,0x07,0x0A,Read,ACK
6.787151125000000,326,0x07,0x00,Read,ACK
6.787261025000000,326,0x07,0x00,Read,ACK
6.787371600000000,326,0x07,0x01,Read,ACK
6.787481525000000,326,0x07,0x02,Read,ACK
6.787591425000000,326,0x07,0x77,Read,ACK
6.787701350000000,326,0x07,0x0C,Read,ACK
6.787811250000000,326,0x07,0xE4,Read,ACK
6.787921175000000,326,0x07,0x00,Read,ACK
6.788031075000000,326,0x07,0x00,Read,ACK
6.788141000000000,326,0x07,0x00,Read,ACK
6.788251575000000,326,0x07,0x00,Read,ACK
6.788361475000000,326,0x07,0x00,Read,ACK
6.788471400000000,326,0x07,0x00,Read,ACK
6.788581300000000,326,0x07,0x00,Read,ACK
6.788691200000000,326,0x07,0x00,Read,NAK
6.808770925000000,327,0x81,0x03,Read,ACK
6.808880850000000,327,0x81,0x00,Read,ACK
6.808990750000000,327,0x81,0x00,Read,ACK
6.809100650000000,327,0x81,0x00,Read,ACK
6.809210550000000,327,0x81,0x00,Read,ACK
6.809320450000000,327,0x81,0x00,Read,ACK
6.809430350000000,327,0x81,0x00,Read,ACK
6.809540250000000,327,0x81,0x00,Read,ACK
6.809650800000000,327,0x81,0x00,Read,ACK
6.809761375000000,327,0x81,0x00,Read,ACK
6.809871275000000,327,0x81,0x00,Read,ACK
6.809982750000000,327,0x81,0x00,Read,ACK
6.810092425000000,327,0x81,0x00,Read,ACK
6.810202325000000,327,0x81,0x00,Read,ACK
6.810312225000000,327,0x81,0x00,Read,ACK
6.810422125000000,327,0x81,0x00,Read,NAK
6.875060825000000,328,0x07,0x40,Read,ACK
6.875170725000000,328,0x07,0x00,Read,ACK
6.875280625000000,328,0x07,0x07,Read,ACK
6.875390550000000,328,0x07,0x80,Read,ACK
6.875500450000000,328,0x07,0x00,Read,ACK
6.875610375000000,328,0x07,0x00,Read,ACK
6.875720275000000,328,0x07,0x00,Read,ACK
6.875830200000000,328,0x07,0x00,Read,ACK
6.875940100000000,328,0x07,0x00,Read,ACK
6.876050025000000,328,0x07,0x00,Read,ACK
6.876160600000000,328,0x07,0x00,Read,ACK
6.876270525000000,328,0x07,0x00,Read,ACK
6.876380425000000,328,0x07,0x00,Read,ACK
6.876490350000000,328,0x07,0x00,Read,ACK
6.876600275000000,328,0x07,0x00,Read,ACK
6.876710200000000,328,0x07,0x00,Read,NAK
6.896789825000000,329,0x81,0x0A,Read,ACK
6.896899750000000,329,0x81,0x00,Read,ACK
6.897009650000000,329,0x81,0x00,Read,ACK
6.897119550000000,329,0x81,0x01,Read,ACK
6.897229475000000,329,0x81,0x02,Read,ACK
6.897339375000000,329,0x81,0x77,Read,ACK
6.897449300000000,329,0x81,0x0C,Read,ACK
6.897559200000000,329,0x81,0xE4,Read,ACK
6.897669100000000,329,0x81,0x00,Read,ACK
6.897779025000000,329,0x81,0x00,Read,ACK
6.897888925000000,329,0x81,0x00,Read,ACK
6.897998850000000,329,0x81,0x00,Read,ACK
6.898108750000000,329,0x81,0x00,Read,ACK
6.898218675000000,329,0x81,0x00,Read,ACK
6.898328575000000,329,0x81,0x00,Read,ACK
6.898438475000000,329,0x81,0x00,Read,NAK
6.962968600000000,330,0x07,0x03,Read,ACK
6.963079175000000,330,0x07,0x00,Read,ACK
6.963189075000000,330,0x07,0x00,Read,ACK
6.963299650000000,330,0x07,0x00,Read,ACK
6.963409550000000,330,0x07,0x00,Read,ACK
6.963519450000000,330,0x07,0x00,Read,ACK
6.963629350000000,330,0x07,0x00,Read,ACK
6.963739250000000,330,0x07,0x00,Read,ACK
6.963849150000000,330,0x07,0x00,Read,ACK
6.963959050000000,330,0x07,0x00,Read,ACK
6.964068950000000,330,0x07,0x00,Read,ACK
6.964179525000000,330,0x07,0x00,Read,ACK
6.964289425000000,330,0x07,0x00,Read,ACK
6.964399325000000,330,0x07,0x00,Read,ACK
6.964509225000000,330,0x07,0x00,Read,ACK
6.964619125000000,330,0x07,0x00,Read,NAK
6.984815475000000,331,0x81,0x40,Read,ACK
6.984925375000000,331,0x81,0x00,Read,ACK
6.985035275000000,331,0x81,0x07,Read,ACK
6.985145175000000,331,0x81,0x4E,Read,ACK
6.985255075000000,331,0x81,0x00,Read,ACK
6.985365000000000,331,0x81,0x00,Read,ACK
6.985474900000000,331,0x81,0x00,Read,ACK
6.985584800000000,331,0x81,0x00,Read,ACK
6.985694700000000,331,0x81,0x00,Read,ACK
6.985804600000000,331,0x81,0x00,Read,ACK
6.985914500000000,331,0x81,0x00,Read,ACK
6.986024400000000,331,0x81,0x00,Read,ACK
6.986134300000000,331,0x81,0x00,Read,ACK
6.986244200000000,331,0x81,0x00,Read,ACK
6.986354100000000,331,0x81,0x00,Read,ACK
6.986464025000000,331,0x81,0x00,Read,NAK
7.050993675000000,332,0x07,0x0A,Read,ACK
7.051103600000000,332,0x07,0x00,Read,ACK
7.051213475000000,332,0x07,0x00,Read,ACK
7.051323375000000,332,0x07,0x01,Read,ACK
7.051433275000000,332,0x07,0x02,Read,ACK
7.051543175000000,332,0x07,0x77,Read,ACK
7.051653100000000,332,0x07,0x0C,Read,ACK
7.051762975000000,332,0x07,0xE4,Read,ACK
7.051872900000000,332,0x07,0x00,Read,ACK
7.051982800000000,332,0x07,0x00,Read,ACK
7.052092700000000,332,0x07,0x00,Read,ACK
7.052202600000000,332,0x07,0x00,Read,ACK
7.052312500000000,332,0x07,0x00,Read,ACK
7.052422425000000,332,0x07,0x00,Read,ACK
7.052532325000000,332,0x07,0x00,Read,ACK
7.052642225000000,332,0x07,0x00,Read,NAK
7.072835600000000,333,0x81,0x03,Read,ACK
7.072945500000000,333,0x81,0x00,Read,ACK
7.073056075000000,333,0x81,0x00,Read,ACK
7.073165975000000,333,0x81,0x00,Read,ACK
7.073275900000000,333,0x81,0x00,Read,ACK
7.073385800000000,333,0x81,0x00,Read,ACK
7.073495725000000,333,0x81,0x00,Read,ACK
7.073605625000000,333,0x81,0x00,Read,ACK
7.073715525000000,333,0x81,0x00,Read,ACK
7.073825450000000,333,0x81,0x00,Read,ACK
7.073936000000000,333,0x81,0x00,Read,ACK
7.074045900000000,333,0x81,0x00,Read,ACK
7.074155825000000,333,0x81,0x00,Read,ACK
7.074265725000000,333,0x81,0x00,Read,ACK
7.074375625000000,333,0x81,0x00,Read,ACK
7.074485550000000,333,0x81,0x00,Read,NAK
7.139013100000000,334,0x07,0x40,Read,ACK
7.139123025000000,334,0x07,0x00,Read,ACK
7.139232925000000,334,0x07,0x07,Read,ACK
7.139342825000000,334,0x07,0x2C,Read,ACK
7.139452750000000,334,0x07,0x00,Read,ACK
7.139562650000000,334,0x07,0x00,Read,ACK
7.139672575000000,334,0x07,0x00,Read,ACK
7.139782475000000,334,0x07,0x00,Read,ACK
7.139892375000000,334,0x07,0x00,Read,ACK
7.140002300000000,334,0x07,0x00,Read,ACK
7.140112200000000,334,0x07,0x00,Read,ACK
7.140222100000000,334,0x07,0x00,Read,ACK
7.140332000000000,334,0x07,0x00,Read,ACK
7.140441900000000,334,0x07,0x00,Read,ACK
7.140551800000000,334,0x07,0x00,Read,ACK
7.140661700000000,334,0x07,0x00,Read,NAK
7.160852875000000,335,0x81,0x0A,Read,ACK
7.160962775000000,335,0x81,0x00,Read,ACK
7.161072675000000,335,0x81,0x00,Read,ACK
7.161182600000000,335,0x81,0x01,Read,ACK
7.161292500000000,335,0x81,0x02,Read,ACK
7.161402400000000,335,0x81,0x77,Read,ACK
7.161512300000000,335,0x81,0x0C,Read,ACK
7.161622200000000,335,0x81,0xE4,Read,ACK
7.161732125000000,335,0x81,0x00,Read,ACK
7.161842025000000,335,0x81,0x00,Read,ACK
7.161951925000000,335,0x81,0x00,Read,ACK
7.162061825000000,335,0x81,0x00,Read,ACK
7.162171725000000,335,0x81,0x00,Read,ACK
7.162281625000000,335,0x81,0x00,Read,ACK
7.162391525000000,335,0x81,0x00,Read,ACK
7.162501450000000,335,0x81,0x00,Read,NAK
7.227033150000000,336,0x07,0x03,Read,ACK
7.227143050000000,336,0x07,0x00,Read,ACK
7.227252975000000,336,0x07,0x00,Read,ACK
7.227362875000000,336,0x07,0x00,Read,ACK
7.227472775000000,336,0x07,0x00,Read,ACK
7.227582675000000,336,0x07,0x00,Read,ACK
7.227692575000000,336,0x07,0x00,Read,ACK
7.227802475000000,336,0x07,0x00,Read,ACK
7.227912375000000,336,0x07,0x00,Read,ACK
7.228022300000000,336,0x07,0x00,Read,ACK
7.228132200000000,336,0x07,0x00,Read,ACK
7.228242125000000,336,0x07,0x00,Read,ACK
7.228352025000000,336,0x07,0x00,Read,ACK
7.228461925000000,336,0x07,0x00,Read,ACK
7.228571825000000,336,0x07,0x00,Read,ACK
7.228681750000000,336,0x07,0x00,Read,NAK
7.248877000000000,337,0x81,0x40,Read,ACK
7.248986900000000,337,0x81,0x00,Read,ACK
7.249096800000000,337,0x81,0x07,Read,ACK
7.249206725000000,337,0x81,0x05,Read,ACK
7.249316625000000,337,0x81,0x00,Read,ACK
7.249426525000000,337,0x81,0x00,Read,ACK
7.249536450000000,337,0x81,0x00,Read,ACK
7.249646350000000,337,0x81,0x00,Read,ACK
7.249756275000000,337,0x81,0x00,Read,ACK
7.249866175000000,337,0x81,0x00,Read,ACK
7.249976075000000,337,0x81,0x00,Read,ACK
7.250086000000000,337,0x81,0x00,Read,ACK
7.250195900000000,337,0x81,0x00,Read,ACK
7.250305800000000,337,0x81,0x00,Read,ACK
7.250415725000000,337,0x81,0x00,Read,ACK
7.250525625000000,337,0x81,0x00,Read,NAK
7.315052925000000,338,0x07,0x0A,Read,ACK
7.315163500000000,338,0x07,0x00,Read,ACK
7.315273425000000,338,0x07,0x00,Read,ACK
7.315384000000000,338,0x07,0x01,Read,ACK
7.315493900000000,338,0x07,0x02,Read,ACK
7.315603800000000,338,0x07,0x77,Read,ACK
7.315713700000000,338,0x07,0x0C,Read,ACK
7.315823625000000,338,0x07,0xE4,Read,ACK
7.315933525000000,338,0x07,0x00,Read,ACK
7.316043425000000,338,0x07,0x00,Read,ACK
7.316153325000000,338,0x07,0x00,Read,ACK
7.316263900000000,338,0x07,0x00,Read,ACK
7.316373800000000,338,0x07,0x00,Read,ACK
7.316483725000000,338,0x07,0x00,Read,ACK
7.316593625000000,338,0x07,0x00,Read,ACK
7.316703525000000,338,0x07,0x00,Read,NAK
7.336784700000000,339,0x81,0x03,Read,ACK
7.336895275000000,339,0x81,0x00,Read,ACK
7.337005175000000,339,0x81,0x00,Read,ACK
7.337115075000000,339,0x81,0x00,Read,ACK
7.337224975000000,339,0x81,0x00,Read,ACK
7.337334875000000,339,0x81,0x00,Read,ACK
7.337445450000000,339,0x81,0x00,Read,ACK
7.337555350000000,339,0x81,0x00,Read,ACK
7.337665250000000,339,0x81,0x00,Read,ACK
7.337775150000000,339,0x81,0x00,Read,ACK
7.337885050000000,339,0x81,0x00,Read,ACK
7.337994950000000,339,0x81,0x00,Read,ACK
7.338104850000000,339,0x81,0x00,Read,ACK
7.338214750000000,339,0x81,0x00,Read,ACK
7.338325325000000,339,0x81,0x00,Read,ACK
7.338435225000000,339,0x81,0x00,Read,NAK
7.402966550000000,340,0x07,0x40,Read,ACK
7.403076450000000,340,0x07,0x00,Read,ACK
7.403186350000000,340,0x07,0x06,Read,ACK
7.403296250000000,340,0x07,0xEC,Read,ACK
7.403406150000000,340,0x07,0x00,Read,ACK
7.403516025000000,340,0x07,0x00,Read,ACK
7.403625925000000,340,0x07,0x00,Read,ACK
7.403735825000000,340,0x07,0x00,Read,ACK
7.403845725000000,340,0x07,0x00,Read,ACK
7.403955625000000,340,0x07,0x00,Read,ACK
7.404066175000000,340,0x07,0x00,Read,ACK
7.404176075000000,340,0x07,0x00,Read,ACK
7.404285975000000,340,0x07,0x00,Read,ACK
7.404395875000000,340,0x07,0x00,Read,ACK
7.404505775000000,340,0x07,0x00,Read,ACK
7.404615700000000,340,0x07,0x00,Read,NAK
7.424805500000000,341,0x81,0x0A,Read,ACK
7.424915400000000,341,0x81,0x00,Read,ACK
7.425025975000000,341,0x81,0x00,Read,ACK
7.425135850000000,341,0x81,0x00,Read,ACK
7.425245750000000,341,0x81,0x02,Read,ACK
7.425355650000000,341,0x81,0x77,Read,ACK
7.425465575000000,341,0x81,0x0C,Read,ACK
7.425575475000000,341,0x81,0xE4,Read,ACK
7.425685375000000,341,0x81,0x00,Read,ACK
7.425795275000000,341,0x81,0x00,Read,ACK
7.425905825000000,341,0x81,0x00,Read,ACK
7.426015725000000,341,0x81,0x00,Read,ACK
7.426125625000000,341,0x81,0x00,Read,ACK
7.426235550000000,341,0x81,0x00,Read,ACK
7.426345450000000,341,0x81,0x00,Read,ACK
7.426455325000000,341,0x81,0x00,Read,NAK
7.490985300000000,342,0x07,0x03,Read,ACK
7.491095225000000,342,0x07,0x00,Read,ACK
7.491205125000000,342,0x07,0x00,Read,ACK
7.491315025000000,342,0x07,0x00,Read,ACK
7.491424925000000,342,0x07,0x00,Read,ACK
7.491534825000000,342,0x07,0x00,Read,ACK
7.491644725000000,342,0x07,0x00,Read,ACK
7.491754650000000,342,0x07,0x00,Read,ACK
7.491864550000000,342,0x07,0x00,Read,ACK
7.491974450000000,342,0x07,0x00,Read,ACK
7.492085000000000,342,0x07,0x00,Read,ACK
7.492194900000000,342,0x07,0x00,Read,ACK
7.492304800000000,342,0x07,0x00,Read,ACK
7.492414725000000,342,0x07,0x00,Read,ACK
7.492524625000000,342,0x07,0x00,Read,ACK
7.492634525000000,342,0x07,0x00,Read,NAK
7.512829775000000,343,0x81,0x40,Read,ACK
7.512939675000000,343,0x81,0x00,Read,ACK
7.513049575000000,343,0x81,0x06,Read,ACK
7.513159500000000,343,0x81,0xD4,Read,ACK
7.513269400000000,343,0x81,0x00,Read,ACK
7.513379300000000,343,0x81,0x00,Read,ACK
7.513489200000000,343,0x81,0x00,Read,ACK
7.513599100000000,343,0x81,0x00,Read,ACK
7.513709000000000,343,0x81,0x00,Read,ACK
7.513818925000000,343,0x81,0x00,Read,ACK
7.513928825000000,343,0x81,0x00,Read,ACK
7.514038725000000,343,0x81,0x00,Read,ACK
7.514148625000000,343,0x81,0x00,Read,ACK
7.514258525000000,343,0x81,0x00,Read,ACK
7.514368450000000,343,0x81,0x00,Read,ACK
7.514478350000000,343,0x81,0x00,Read,NAK
7.578998225000000,344,0x07,0x0A,Read,ACK
7.579108800000000,344,0x07,0x00,Read,ACK
7.579218700000000,344,0x07,0x00,Read,ACK
7.579329250000000,344,0x07,0x00,Read,ACK
7.579439150000000,344,0x07,0x02,Read,ACK
7.579549050000000,344,0x07,0x77,Read,ACK
7.579658950000000,344,0x07,0x0C,Read,ACK
7.579768850000000,344,0x07,0xE4,Read,ACK
7.579878750000000,344,0x07,0x00,Read,ACK
7.579988625000000,344,0x07,0x00,Read,ACK
7.580098525000000,344,0x07,0x00,Read,ACK
7.580209100000000,344,0x07,0x00,Read,ACK
7.580319000000000,344,0x07,0x00,Read,ACK
7.580428875000000,344,0x07,0x00,Read,ACK
7.580538775000000,344,0x07,0x00,Read,ACK
7.580648675000000,344,0x07,0x00,Read,NAK
7.600842750000000,345,0x81,0x03,Read,ACK
7.600952675000000,345,0x81,0x00,Read,ACK
7.601063225000000,345,0x81,0x00,Read,ACK
7.601173150000000,345,0x81,0x00,Read,ACK
7.601283050000000,345,0x81,0x00,Read,ACK
7.601392950000000,345,0x81,0x00,Read,ACK
7.601502875000000,345,0x81,0x00,Read,ACK
7.601612775000000,345,0x81,0x00,Read,ACK
7.601722700000000,345,0x81,0x00,Read,ACK
7.601832600000000,345,0x81,0x00,Read,ACK
7.601943150000000,345,0x81,0x00,Read,ACK
7.602053075000000,345,0x81,0x00,Read,ACK
7.602162975000000,345,0x81,0x00,Read,ACK
7.602272875000000,345,0x81,0x00,Read,ACK
7.602382775000000,345,0x81,0x00,Read,ACK
7.602492700000000,345,0x81,0x00,Read,NAK
7.667022450000000,346,0x07,0x40,Read,ACK
7.667132350000000,346,0x07,0x00,Read,ACK
7.667242250000000,346,0x07,0x06,Read,ACK
7.667352150000000,346,0x07,0xBF,Read,ACK
7.667462050000000,346,0x07,0x00,Read,ACK
7.667571950000000,346,0x07,0x00,Read,ACK
7.667681875000000,346,0x07,0x00,Read,ACK
7.667791775000000,346,0x07,0x00,Read,ACK
7.667901675000000,346,0x07,0x00,Read,ACK
7.668011575000000,346,0x07,0x00,Read,ACK
7.668122150000000,346,0x07,0x00,Read,ACK
7.668232050000000,346,0x07,0x00,Read,ACK
7.668341950000000,346,0x07,0x00,Read,ACK
7.668451850000000,346,0x07,0x00,Read,ACK
7.668561750000000,346,0x07,0x00,Read,ACK
7.668671675000000,346,0x07,0x00,Read,NAK
7.688863175000000,347,0x81,0x0A,Read,ACK
7.688973750000000,347,0x81,0x00,Read,ACK
7.689083650000000,347,0x81,0x00,Read,ACK
7.689193550000000,347,0x81,0x01,Read,ACK
7.689303450000000,347,0x81,0x02,Read,ACK
7.689413350000000,347,0x81,0x77,Read,ACK
7.689523900000000,347,0x81,0x0C,Read,ACK
7.689633800000000,347,0x81,0xE4,Read,ACK
7.689743700000000,347,0x81,0x00,Read,ACK
7.689853600000000,347,0x81,0x00,Read,ACK
7.689963500000000,347,0x81,0x00,Read,ACK
7.690073400000000,347,0x81,0x00,Read,ACK
7.690183300000000,347,0x81,0x00,Read,ACK
7.690293225000000,347,0x81,0x00,Read,ACK
7.690403800000000,347,0x81,0x00,Read,ACK
7.690513700000000,347,0x81,0x00,Read,NAK
7.755042775000000,348,0x07,0x03,Read,ACK
7.755152675000000,348,0x07,0x00,Read,ACK
7.755262600000000,348,0x07,0x00,Read,ACK
7.755372500000000,348,0x07,0x00,Read,ACK
7.755482400000000,348,0x07,0x00,Read,ACK
7.755592300000000,348,0x07,0x00,Read,ACK
7.755702200000000,348,0x07,0x00,Read,ACK
7.755812100000000,348,0x07,0x00,Read,ACK
7.755922000000000,348,0x07,0x00,Read,ACK
7.756031900000000,348,0x07,0x00,Read,ACK
7.756141800000000,348,0x07,0x00,Read,ACK
7.756251700000000,348,0x07,0x00,Read,ACK
7.756361600000000,348,0x07,0x00,Read,ACK
7.756471500000000,348,0x07,0x00,Read,ACK
7.756581400000000,348,0x07,0x00,Read,ACK
7.756691300000000,348,0x07,0x00,Read,NAK
7.776886025000000,349,0x81,0x40,Read,ACK
7.776995925000000,349,0x81,0x00,Read,ACK
7.777105825000000,349,0x81,0x06,Read,ACK
7.777215750000000,349,0x81,0xAB,Read,ACK
7.777325650000000,349,0x81,0x00,Read,ACK
7.777435550000000,349,0x81,0x00,Read,ACK
7.777545450000000,349,0x81,0x00,Read,ACK
7.777655375000000,349,0x81,0x00,Read,ACK
7.777765275000000,349,0x81,0x00,Read,ACK
7.777875175000000,349,0x81,0x00,Read,ACK
7.777985075000000,349,0x81,0x00,Read,ACK
7.778094975000000,349,0x81,0x00,Read,ACK
7.778204875000000,349,0x81,0x00,Read,ACK
7.778314775000000,349,0x81,0x00,Read,ACK
7.778424700000000,349,0x81,0x00,Read,ACK
7.778534600000000,349,0x81,0x00,Read,NAK
7.843068225000000,350,0x07,0x0A,Read,ACK
7.843178150000000,350,0x07,0x00,Read,ACK
7.843288050000000,350,0x07,0x00,Read,ACK
7.843397975000000,350,0x07,0x00,Read,ACK
7.843507875000000,350,0x07,0x02,Read,ACK
7.843617775000000,350,0x07,0x77,Read,ACK
7.843727675000000,350,0x07,0x0C,Read,ACK
7.843837575000000,350,0x07,0xE4,Read,ACK
7.843947475000000,350,0x07,0x00,Read,ACK
7.844057400000000,350,0x07,0x00,Read,ACK
7.844167950000000,350,0x07,0x00,Read,ACK
7.844277850000000,350,0x07,0x00,Read,ACK
7.844387750000000,350,0x07,0x00,Read,ACK
7.844497675000000,350,0x07,0x00,Read,ACK
7.844607575000000,350,0x07,0x00,Read,ACK
7.844717475000000,350,0x07,0x00,Read,NAK
7.864792600000000,351,0x81,0x03,Read,ACK
7.864902500000000,351,0x81,0x00,Read,ACK
7.865012425000000,351,0x81,0x00,Read,ACK
7.865122325000000,351,0x81,0x00,Read,ACK
7.865232225000000,351,0x81,0x00,Read,ACK
7.865342150000000,351,0x81,0x00,Read,ACK
7.865452050000000,351,0x81,0x00,Read,ACK
7.865561950000000,351,0x81,0x00,Read,ACK
7.865671875000000,351,0x81,0x00,Read,ACK
7.865781775000000,351,0x81,0x00,Read,ACK
7.865891675000000,351,0x81,0x00,Read,ACK
7.866001600000000,351,0x81,0x00,Read,ACK
7.866111500000000,351,0x81,0x00,Read,ACK
7.866221400000000,351,0x81,0x00,Read,ACK
7.866331325000000,351,0x81,0x00,Read,ACK
7.866441225000000,351,0x81,0x00,Read,NAK
7.930977500000000,352,0x07,0x40,Read,ACK
7.931087425000000,352,0x07,0x00,Read,ACK
7.931197325000000,352,0x07,0x06,Read,ACK
7.931307250000000,352,0x07,0x96,Read,ACK
7.931417150000000,352,0x07,0x00,Read,ACK
7.931527075000000,352,0x07,0x00,Read,ACK
7.931637000000000,352,0x07,0x00,Read,ACK
7.931746900000000,352,0x07,0x00,Read,ACK
7.931856825000000,352,0x07,0x00,Read,ACK
7.931966725000000,352,0x07,0x00,Read,ACK
7.932077325000000,352,0x07,0x00,Read,ACK
7.932187225000000,352,0x07,0x00,Read,ACK
7.932297150000000,352,0x07,0x00,Read,ACK
7.932407050000000,352,0x07,0x00,Read,ACK
7.932516975000000,352,0x07,0x00,Read,ACK
7.932626900000000,352,0x07,0x00,Read,NAK
7.952820850000000,353,0x81,0x0A,Read,ACK
7.952930750000000,353,0x81,0x00,Read,ACK
7.953041300000000,353,0x81,0x00,Read,ACK
7.953151225000000,353,0x81,0x01,Read,ACK
7.953261125000000,353,0x81,0x02,Read,ACK
7.953371050000000,353,0x81,0x77,Read,ACK
7.953480950000000,353,0x81,0x0C,Read,ACK
7.953590850000000,353,0x81,0xE4,Read,ACK
7.953700775000000,353,0x81,0x00,Read,ACK
7.953810675000000,353,0x81,0x00,Read,ACK
7.953921250000000,353,0x81,0x00,Read,ACK
7.954031150000000,353,0x81,0x00,Read,ACK
7.954141050000000,353,0x81,0x00,Read,ACK
7.954250975000000,353,0x81,0x00,Read,ACK
7.954360875000000,353,0x81,0x00,Read,ACK
7.954470800000000,353,0x81,0x00,Read,NAK
8.018994025000000,354,0x07,0x03,Read,ACK
8.019104600000000,354,0x07,0x00,Read,ACK
8.019214500000000,354,0x07,0x00,Read,ACK
8.019325074999999,354,0x07,0x00,Read,ACK
8.019434974999999,354,0x07,0x00,Read,ACK
8.019544874999999,354,0x07,0x00,Read,ACK
8.019654800000000,354,0x07,0x00,Read,ACK
8.019764700000000,354,0x07,0x00,Read,ACK
8.019874600000000,354,0x07,0x00,Read,ACK
8.019984500000000,354,0x07,0x00,Read,ACK
8.020094425000000,354,0x07,0x00,Read,ACK
8.020204975000000,354,0x07,0x00,Read,ACK
8.020314875000000,354,0x07,0x00,Read,ACK
8.020424800000001,354,0x07,0x00,Read,ACK
8.020534700000001,354,0x07,0x00,Read,ACK
8.020644600000001,354,0x07,0x00,Read,NAK
8.040837325000000,355,0x81,0x40,Read,ACK
8.040947250000000,355,0x81,0x00,Read,ACK
8.041057824999999,355,0x81,0x06,Read,ACK
8.041167724999999,355,0x81,0x7C,Read,ACK
8.041277650000000,355,0x81,0x00,Read,ACK
8.041387550000000,355,0x81,0x00,Read,ACK
8.041497475000000,355,0x81,0x00,Read,ACK
8.041607375000000,355,0x81,0x00,Read,ACK
8.041717300000000,355,0x81,0x00,Read,ACK
8.041827200000000,355,0x81,0x00,Read,ACK
8.041937774999999,355,0x81,0x00,Read,ACK
8.042047699999999,355,0x81,0x00,Read,ACK
8.042157599999999,355,0x81,0x00,Read,ACK
8.042267525000000,355,0x81,0x00,Read,ACK
8.042377425000000,355,0x81,0x00,Read,ACK
8.042487350000000,355,0x81,0x00,Read,NAK
8.107014475000000,356,0x07,0x0A,Read,ACK
8.107124400000000,356,0x07,0x00,Read,ACK
8.107234300000000,356,0x07,0x00,Read,ACK
8.107344225000000,356,0x07,0x00,Read,ACK
8.107454125000000,356,0x07,0x02,Read,ACK
8.107564050000001,356,0x07,0x77,Read,ACK
8.107673950000001,356,0x07,0x0C,Read,ACK
8.107783850000001,356,0x07,0xE4,Read,ACK
8.107893775000001,356,0x07,0x00,Read,ACK
8.108003675000001,356,0x07,0x00,Read,ACK
8.108113575000001,356,0x07,0x00,Read,ACK
8.108223499999999,356,0x07,0x00,Read,ACK
8.108333399999999,356,0x07,0x00,Read,ACK
8.108443299999999,356,0x07,0x00,Read,ACK
8.108553199999999,356,0x07,0x00,Read,ACK
8.108663125000000,356,0x07,0x00,Read,NAK
8.128858149999999,357,0x81,0x03,Read,ACK
8.128968725000000,357,0x81,0x00,Read,ACK
8.129078625000000,357,0x81,0x00,Read,ACK
8.129188525000000,357,0x81,0x00,Read,ACK
8.129298450000000,357,0x81,0x00,Read,ACK
8.129408350000000,357,0x81,0x00,Read,ACK
8.129518924999999,357,0x81,0x00,Read,ACK
8.129628824999999,357,0x81,0x00,Read,ACK
8.129738750000000,357,0x81,0x00,Read,ACK
8.129848650000000,357,0x81,0x00,Read,ACK
8.129958550000000,357,0x81,0x00,Read,ACK
8.130068475000000,357,0x81,0x00,Read,ACK
8.130178375000000,357,0x81,0x00,Read,ACK
8.130288275000000,357,0x81,0x00,Read,ACK
8.130398850000001,357,0x81,0x00,Read,ACK
8.130508774999999,357,0x81,0x00,Read,NAK
8.195037175000000,358,0x07,0x40,Read,ACK
8.195147750000000,358,0x07,0x00,Read,ACK
8.195257650000000,358,0x07,0x06,Read,ACK
8.195368224999999,358,0x07,0x71,Read,ACK
8.195478124999999,358,0x07,0x00,Read,ACK
8.195588024999999,358,0x07,0x00,Read,ACK
8.195697924999999,358,0x07,0x00,Read,ACK
8.195807850000000,358,0x07,0x00,Read,ACK
8.195917750000000,358,0x07,0x00,Read,ACK
8.196027650000000,358,0x07,0x00,Read,ACK
8.196137575000000,358,0x07,0x00,Read,ACK
8.196248150000001,358,0x07,0x00,Read,ACK
8.196358050000001,358,0x07,0x00,Read,ACK
8.196467974999999,358,0x07,0x00,Read,ACK
8.196577874999999,358,0x07,0x00,Read,ACK
8.196687774999999,358,0x07,0x00,Read,NAK
8.216873050000000,359,0x81,0x0A,Read,ACK
8.216982975000001,359,0x81,0x00,Read,ACK
8.217092875000001,359,0x81,0x00,Read,ACK
8.217202800000001,359,0x81,0x01,Read,ACK
8.217312700000001,359,0x81,0x02,Read,ACK
8.217422600000001,359,0x81,0x77,Read,ACK
8.217532524999999,359,0x81,0x0C,Read,ACK
8.217642424999999,359,0x81,0xE4,Read,ACK
8.217752350000000,359,0x81,0x00,Read,ACK
8.217864225000000,359,0x81,0x00,Read,ACK
8.217974175000000,359,0x81,0x00,Read,ACK
8.218084100000000,359,0x81,0x00,Read,ACK
8.218194000000000,359,0x81,0x00,Read,ACK
8.218303925000001,359,0x81,0x00,Read,ACK
8.218413825000001,359,0x81,0x00,Read,ACK
8.218524400000000,359,0x81,0x00,Read,NAK
8.283052100000001,360,0x07,0x03,Read,ACK
8.283162024999999,360,0x07,0x00,Read,ACK
8.283271924999999,360,0x07,0x00,Read,ACK
8.283381850000000,360,0x07,0x00,Read,ACK
8.283491750000000,360,0x07,0x00,Read,ACK
8.283601675000000,360,0x07,0x00,Read,ACK
8.283711575000000,360,0x07,0x00,Read,ACK
8.283821500000000,360,0x07,0x00,Read,ACK
8.283931425000000,360,0x07,0x00,Read,ACK
8.284041325000000,360,0x07,0x00,Read,ACK
8.284151250000001,360,0x07,0x00,Read,ACK
8.284261150000001,360,0x07,0x00,Read,ACK
8.284371074999999,360,0x07,0x00,Read,ACK
8.284480974999999,360,0x07,0x00,Read,ACK
8.284590874999999,360,0x07,0x00,Read,ACK
8.284700800000000,360,0x07,0x00,Read,NAK
8.304791825000001,361,0x81,0x40,Read,ACK
8.304901725000001,361,0x81,0x00,Read,ACK
8.305012300000000,361,0x81,0x06,Read,ACK
8.305122225000000,361,0x81,0x5D,Read,ACK
8.305232150000000,361,0x81,0x00,Read,ACK
8.305342050000000,361,0x81,0x00,Read,ACK
8.305451975000000,361,0x81,0x00,Read,ACK
